Frame,Timestamp,Event
5914,1744588348.0636237,Start Get Vehicle Position (on manual_control.py Side)
5914,1744588348.0636942,End Get Vehicle Position (on manual_control.py Side)
5914,1744588348.0636292,Start Get Vehicle Position (on record.py Side)
5914,1744588348.063691,End Get Vehicle Position (on record.py Side)
5916,1744588348.1127417,Start of Saving Image: frame_5916.png
5916,1744588348.1140146,End of Saving Image: frame_5916.png
5914,1744588348.0763593,Start of Saving Image: frame_5914.png
5914,1744588348.1258104,End of Saving Image: frame_5914.png
5916,1744588348.13475,Start of Saving Image: frame_5916.png
5916,1744588348.1370747,End of Saving Image: frame_5916.png
5918,1744588348.1473253,Start of Saving Image: frame_5918.png
5918,1744588348.1493273,End of Saving Image: frame_5918.png
5914,1744588348.0481715,Start of Frame 5914
5914,1744588348.1740346,End of Frame 5914
5920,1744588348.1741557,Start Get Vehicle Position (on manual_control.py Side)
5920,1744588348.1741762,End Get Vehicle Position (on manual_control.py Side)
5920,1744588348.1741574,Start Get Vehicle Position (on record.py Side)
5920,1744588348.1741753,End Get Vehicle Position (on record.py Side)
5919,1744588348.1639705,Start of Saving Image: frame_5919.png
5919,1744588348.1803627,End of Saving Image: frame_5919.png
5920,1744588348.174047,Start of Frame 5920
5920,1744588348.181193,End of Frame 5920
5921,1744588348.1899967,Start Get Vehicle Position (on manual_control.py Side)
5921,1744588348.19001,End Get Vehicle Position (on manual_control.py Side)
5921,1744588348.189998,Start Get Vehicle Position (on record.py Side)
5921,1744588348.190009,End Get Vehicle Position (on record.py Side)
5921,1744588348.1811993,Start of Frame 5921
5921,1744588348.1953874,End of Frame 5921
5922,1744588348.2055287,Start Get Vehicle Position (on manual_control.py Side)
5922,1744588348.2055516,End Get Vehicle Position (on manual_control.py Side)
5922,1744588348.2055306,Start Get Vehicle Position (on record.py Side)
5922,1744588348.2055502,End Get Vehicle Position (on record.py Side)
5920,1744588348.189816,Start of Saving Image: frame_5920.png
5920,1744588348.2172177,End of Saving Image: frame_5920.png
5922,1744588348.1953964,Start of Frame 5922
5922,1744588348.2351165,End of Frame 5922
5923,1744588348.2352293,Start Get Vehicle Position (on manual_control.py Side)
5923,1744588348.2352483,End Get Vehicle Position (on manual_control.py Side)
5923,1744588348.2352307,Start Get Vehicle Position (on record.py Side)
5923,1744588348.2352471,End Get Vehicle Position (on record.py Side)
5923,1744588348.2351303,Start of Frame 5923
5923,1744588348.2428424,End of Frame 5923
5924,1744588348.2506194,Start Get Vehicle Position (on manual_control.py Side)
5924,1744588348.2506373,End Get Vehicle Position (on manual_control.py Side)
5924,1744588348.2506208,Start Get Vehicle Position (on record.py Side)
5924,1744588348.2506363,End Get Vehicle Position (on record.py Side)
5921,1744588348.2175055,Start of Saving Image: frame_5921.png
5921,1744588348.252681,End of Saving Image: frame_5921.png
5924,1744588348.242864,Start of Frame 5924
5924,1744588348.2579937,End of Frame 5924
5925,1744588348.2665002,Start Get Vehicle Position (on manual_control.py Side)
5925,1744588348.2665155,End Get Vehicle Position (on manual_control.py Side)
5925,1744588348.2665014,Start Get Vehicle Position (on record.py Side)
5925,1744588348.2665138,End Get Vehicle Position (on record.py Side)
5922,1744588348.2530878,Start of Saving Image: frame_5922.png
5922,1744588348.2701974,End of Saving Image: frame_5922.png
5925,1744588348.2580037,Start of Frame 5925
5925,1744588348.2768493,End of Frame 5925
5925,1744588348.282477,Start Get Vehicle Position (on manual_control.py Side)
5925,1744588348.2824895,End Get Vehicle Position (on manual_control.py Side)
5925,1744588348.2824776,Start Get Vehicle Position (on record.py Side)
5925,1744588348.2824886,End Get Vehicle Position (on record.py Side)
5925,1744588348.2768545,Start of Frame 5925
5925,1744588348.2881997,End of Frame 5925
5926,1744588348.298563,Start Get Vehicle Position (on manual_control.py Side)
5926,1744588348.2985837,End Get Vehicle Position (on manual_control.py Side)
5926,1744588348.2985644,Start Get Vehicle Position (on record.py Side)
5926,1744588348.2985823,End Get Vehicle Position (on record.py Side)
5923,1744588348.2706892,Start of Saving Image: frame_5923.png
5923,1744588348.2997365,End of Saving Image: frame_5923.png
5926,1744588348.2882118,Start of Frame 5926
5926,1744588348.305041,End of Frame 5926
5927,1744588348.314553,Start Get Vehicle Position (on manual_control.py Side)
5927,1744588348.3145697,End Get Vehicle Position (on manual_control.py Side)
5927,1744588348.3145547,Start Get Vehicle Position (on record.py Side)
5927,1744588348.3145685,End Get Vehicle Position (on record.py Side)
5924,1744588348.299975,Start of Saving Image: frame_5924.png
5924,1744588348.3169894,End of Saving Image: frame_5924.png
5927,1744588348.3050544,Start of Frame 5927
5927,1744588348.321416,End of Frame 5927
5928,1744588348.3306162,Start Get Vehicle Position (on manual_control.py Side)
5928,1744588348.3306305,End Get Vehicle Position (on manual_control.py Side)
5928,1744588348.3306177,Start Get Vehicle Position (on record.py Side)
5928,1744588348.3306296,End Get Vehicle Position (on record.py Side)
5925,1744588348.3172193,Start of Saving Image: frame_5925.png
5925,1744588348.3317826,End of Saving Image: frame_5925.png
5928,1744588348.3214235,Start of Frame 5928
5928,1744588348.336238,End of Frame 5928
5929,1744588348.34657,Start Get Vehicle Position (on manual_control.py Side)
5929,1744588348.3465858,End Get Vehicle Position (on manual_control.py Side)
5929,1744588348.3465714,Start Get Vehicle Position (on record.py Side)
5929,1744588348.3465843,End Get Vehicle Position (on record.py Side)
5926,1744588348.332,Start of Saving Image: frame_5926.png
5926,1744588348.3478613,End of Saving Image: frame_5926.png
5915,1744588348.1351197,Start of Saving Image: frame_5915.png
5915,1744588348.3478866,End of Saving Image: frame_5915.png
5929,1744588348.3362458,Start of Frame 5929
5929,1744588348.3549154,End of Frame 5929
5929,1744588348.3626587,Start Get Vehicle Position (on manual_control.py Side)
5929,1744588348.3626754,End Get Vehicle Position (on manual_control.py Side)
5929,1744588348.3626604,Start Get Vehicle Position (on record.py Side)
5929,1744588348.3626742,End Get Vehicle Position (on record.py Side)
5927,1744588348.3480847,Start of Saving Image: frame_5927.png
5927,1744588348.3642993,End of Saving Image: frame_5927.png
5929,1744588348.354922,Start of Frame 5929
5929,1744588348.375876,End of Frame 5929
5930,1744588348.3795192,Start Get Vehicle Position (on manual_control.py Side)
5930,1744588348.3795388,End Get Vehicle Position (on manual_control.py Side)
5930,1744588348.3795204,Start Get Vehicle Position (on record.py Side)
5930,1744588348.3795373,End Get Vehicle Position (on record.py Side)
5928,1744588348.3645267,Start of Saving Image: frame_5928.png
5928,1744588348.3818061,End of Saving Image: frame_5928.png
5930,1744588348.3758876,Start of Frame 5930
5930,1744588348.3879275,End of Frame 5930
5931,1744588348.3955946,Start Get Vehicle Position (on manual_control.py Side)
5931,1744588348.3956084,End Get Vehicle Position (on manual_control.py Side)
5931,1744588348.3955958,Start Get Vehicle Position (on record.py Side)
5931,1744588348.3956072,End Get Vehicle Position (on record.py Side)
5929,1744588348.3821402,Start of Saving Image: frame_5929.png
5929,1744588348.3967726,End of Saving Image: frame_5929.png
5931,1744588348.3879423,Start of Frame 5931
5931,1744588348.4015188,End of Frame 5931
5932,1744588348.4115815,Start Get Vehicle Position (on manual_control.py Side)
5932,1744588348.4116023,End Get Vehicle Position (on manual_control.py Side)
5932,1744588348.411583,Start Get Vehicle Position (on record.py Side)
5932,1744588348.4116008,End Get Vehicle Position (on record.py Side)
5930,1744588348.397005,Start of Saving Image: frame_5930.png
5930,1744588348.413795,End of Saving Image: frame_5930.png
5931,1744588348.4142108,Start of Saving Image: frame_5931.png
5931,1744588348.4238136,End of Saving Image: frame_5931.png
5932,1744588348.4015298,Start of Frame 5932
5932,1744588348.426318,End of Frame 5932
5932,1744588348.4275017,Start Get Vehicle Position (on manual_control.py Side)
5932,1744588348.4275208,End Get Vehicle Position (on manual_control.py Side)
5932,1744588348.4275029,Start Get Vehicle Position (on record.py Side)
5932,1744588348.4275198,End Get Vehicle Position (on record.py Side)
5932,1744588348.4263258,Start of Frame 5932
5932,1744588348.4343884,End of Frame 5932
5933,1744588348.4439821,Start Get Vehicle Position (on manual_control.py Side)
5933,1744588348.4440005,End Get Vehicle Position (on manual_control.py Side)
5933,1744588348.4439836,Start Get Vehicle Position (on record.py Side)
5933,1744588348.4439995,End Get Vehicle Position (on record.py Side)
5933,1744588348.4344008,Start of Frame 5933
5933,1744588348.4522195,End of Frame 5933
5934,1744588348.4596841,Start Get Vehicle Position (on manual_control.py Side)
5934,1744588348.4596999,End Get Vehicle Position (on manual_control.py Side)
5934,1744588348.4596853,Start Get Vehicle Position (on record.py Side)
5934,1744588348.4596987,End Get Vehicle Position (on record.py Side)
5932,1744588348.4437566,Start of Saving Image: frame_5932.png
5932,1744588348.460775,End of Saving Image: frame_5932.png
5934,1744588348.4522324,Start of Frame 5934
5934,1744588348.465696,End of Frame 5934
5935,1744588348.4755769,Start Get Vehicle Position (on manual_control.py Side)
5935,1744588348.4755912,End Get Vehicle Position (on manual_control.py Side)
5935,1744588348.475578,Start Get Vehicle Position (on record.py Side)
5935,1744588348.47559,End Get Vehicle Position (on record.py Side)
5933,1744588348.4611838,Start of Saving Image: frame_5933.png
5933,1744588348.476806,End of Saving Image: frame_5933.png
5934,1744588348.477029,Start of Saving Image: frame_5934.png
5934,1744588348.4853995,End of Saving Image: frame_5934.png
5935,1744588348.4657068,Start of Frame 5935
5935,1744588348.4857383,End of Frame 5935
5935,1744588348.491495,Start Get Vehicle Position (on manual_control.py Side)
5935,1744588348.4915102,End Get Vehicle Position (on manual_control.py Side)
5935,1744588348.4914958,Start Get Vehicle Position (on record.py Side)
5935,1744588348.491509,End Get Vehicle Position (on record.py Side)
5935,1744588348.4857433,Start of Frame 5935
5935,1744588348.498056,End of Frame 5935
5936,1744588348.5076458,Start Get Vehicle Position (on manual_control.py Side)
5936,1744588348.50767,End Get Vehicle Position (on manual_control.py Side)
5936,1744588348.5076473,Start Get Vehicle Position (on record.py Side)
5936,1744588348.5076687,End Get Vehicle Position (on record.py Side)
5935,1744588348.4952276,Start of Saving Image: frame_5935.png
5935,1744588348.5097747,End of Saving Image: frame_5935.png
5936,1744588348.498067,Start of Frame 5936
5936,1744588348.5165138,End of Frame 5936
5937,1744588348.5235045,Start Get Vehicle Position (on manual_control.py Side)
5937,1744588348.5235193,End Get Vehicle Position (on manual_control.py Side)
5937,1744588348.5235057,Start Get Vehicle Position (on record.py Side)
5937,1744588348.5235178,End Get Vehicle Position (on record.py Side)
5937,1744588348.5165262,Start of Frame 5937
5937,1744588348.5309749,End of Frame 5937
5937,1744588348.5395536,Start Get Vehicle Position (on manual_control.py Side)
5937,1744588348.5395682,End Get Vehicle Position (on manual_control.py Side)
5937,1744588348.5395544,Start Get Vehicle Position (on record.py Side)
5937,1744588348.539567,End Get Vehicle Position (on record.py Side)
5936,1744588348.5239031,Start of Saving Image: frame_5936.png
5936,1744588348.5408912,End of Saving Image: frame_5936.png
5937,1744588348.5424113,Start of Saving Image: frame_5937.png
5937,1744588348.5502534,End of Saving Image: frame_5937.png
5937,1744588348.5309834,Start of Frame 5937
5937,1744588348.5525622,End of Frame 5937
5938,1744588348.5554993,Start Get Vehicle Position (on manual_control.py Side)
5938,1744588348.5555143,End Get Vehicle Position (on manual_control.py Side)
5938,1744588348.5555003,Start Get Vehicle Position (on record.py Side)
5938,1744588348.5555131,End Get Vehicle Position (on record.py Side)
5938,1744588348.552569,Start of Frame 5938
5938,1744588348.5602276,End of Frame 5938
5939,1744588348.571997,Start Get Vehicle Position (on manual_control.py Side)
5939,1744588348.5720103,End Get Vehicle Position (on manual_control.py Side)
5939,1744588348.5719981,Start Get Vehicle Position (on record.py Side)
5939,1744588348.5720093,End Get Vehicle Position (on record.py Side)
5939,1744588348.5602348,Start of Frame 5939
5939,1744588348.57932,End of Frame 5939
5940,1744588348.5875483,Start Get Vehicle Position (on manual_control.py Side)
5940,1744588348.5875623,End Get Vehicle Position (on manual_control.py Side)
5940,1744588348.5875492,Start Get Vehicle Position (on record.py Side)
5940,1744588348.5875611,End Get Vehicle Position (on record.py Side)
5938,1744588348.5719025,Start of Saving Image: frame_5938.png
5938,1744588348.5886755,End of Saving Image: frame_5938.png
5940,1744588348.5793285,Start of Frame 5940
5940,1744588348.5946064,End of Frame 5940
5941,1744588348.603587,Start Get Vehicle Position (on manual_control.py Side)
5941,1744588348.6036026,End Get Vehicle Position (on manual_control.py Side)
5941,1744588348.6035883,Start Get Vehicle Position (on record.py Side)
5941,1744588348.6036015,End Get Vehicle Position (on record.py Side)
5939,1744588348.5889194,Start of Saving Image: frame_5939.png
5939,1744588348.6047223,End of Saving Image: frame_5939.png
5916,1744588348.3537223,Start of Saving Image: frame_5916.png
5916,1744588348.6048179,End of Saving Image: frame_5916.png
5941,1744588348.5946147,Start of Frame 5941
5941,1744588348.613842,End of Frame 5941
5941,1744588348.619489,Start Get Vehicle Position (on manual_control.py Side)
5941,1744588348.6195033,End Get Vehicle Position (on manual_control.py Side)
5941,1744588348.6194901,Start Get Vehicle Position (on record.py Side)
5941,1744588348.6195023,End Get Vehicle Position (on record.py Side)
5940,1744588348.6120179,Start of Saving Image: frame_5940.png
5940,1744588348.6208355,End of Saving Image: frame_5940.png
5941,1744588348.6138492,Start of Frame 5941
5941,1744588348.6243691,End of Frame 5941
5942,1744588348.6355917,Start Get Vehicle Position (on manual_control.py Side)
5942,1744588348.6356063,End Get Vehicle Position (on manual_control.py Side)
5942,1744588348.635593,Start Get Vehicle Position (on record.py Side)
5942,1744588348.6356053,End Get Vehicle Position (on record.py Side)
5941,1744588348.6225708,Start of Saving Image: frame_5941.png
5941,1744588348.6368957,End of Saving Image: frame_5941.png
5942,1744588348.6243756,Start of Frame 5942
5942,1744588348.640316,End of Frame 5942
5943,1744588348.651974,Start Get Vehicle Position (on manual_control.py Side)
5943,1744588348.6519864,End Get Vehicle Position (on manual_control.py Side)
5943,1744588348.6519747,Start Get Vehicle Position (on record.py Side)
5943,1744588348.6519845,End Get Vehicle Position (on record.py Side)
5943,1744588348.640321,Start of Frame 5943
5943,1744588348.65829,End of Frame 5943
5943,1744588348.6677914,Start Get Vehicle Position (on manual_control.py Side)
5943,1744588348.6678126,End Get Vehicle Position (on manual_control.py Side)
5943,1744588348.667793,Start Get Vehicle Position (on record.py Side)
5943,1744588348.6678112,End Get Vehicle Position (on record.py Side)
5942,1744588348.6518416,Start of Saving Image: frame_5942.png
5942,1744588348.669824,End of Saving Image: frame_5942.png
5943,1744588348.6700606,Start of Saving Image: frame_5943.png
5943,1744588348.6776094,End of Saving Image: frame_5943.png
5943,1744588348.6583004,Start of Frame 5943
5943,1744588348.6812625,End of Frame 5943
5944,1744588348.6834836,Start Get Vehicle Position (on manual_control.py Side)
5944,1744588348.683497,End Get Vehicle Position (on manual_control.py Side)
5944,1744588348.6834843,Start Get Vehicle Position (on record.py Side)
5944,1744588348.6834962,End Get Vehicle Position (on record.py Side)
5944,1744588348.6812675,Start of Frame 5944
5944,1744588348.6885862,End of Frame 5944
5945,1744588348.6998544,Start Get Vehicle Position (on manual_control.py Side)
5945,1744588348.6998677,End Get Vehicle Position (on manual_control.py Side)
5945,1744588348.6998553,Start Get Vehicle Position (on record.py Side)
5945,1744588348.6998665,End Get Vehicle Position (on record.py Side)
5945,1744588348.6885965,Start of Frame 5945
5945,1744588348.706843,End of Frame 5945
5946,1744588348.7157145,Start Get Vehicle Position (on manual_control.py Side)
5946,1744588348.7157316,End Get Vehicle Position (on manual_control.py Side)
5946,1744588348.7157161,Start Get Vehicle Position (on record.py Side)
5946,1744588348.7157302,End Get Vehicle Position (on record.py Side)
5944,1744588348.6997116,Start of Saving Image: frame_5944.png
5944,1744588348.7168565,End of Saving Image: frame_5944.png
5946,1744588348.7068548,Start of Frame 5946
5946,1744588348.7211742,End of Frame 5946
5947,1744588348.7315505,Start Get Vehicle Position (on manual_control.py Side)
5947,1744588348.7315664,End Get Vehicle Position (on manual_control.py Side)
5947,1744588348.7315516,Start Get Vehicle Position (on record.py Side)
5947,1744588348.731565,End Get Vehicle Position (on record.py Side)
5945,1744588348.7170873,Start of Saving Image: frame_5945.png
5945,1744588348.7327282,End of Saving Image: frame_5945.png
5946,1744588348.732962,Start of Saving Image: frame_5946.png
5946,1744588348.7410026,End of Saving Image: frame_5946.png
5947,1744588348.7211857,Start of Frame 5947
5947,1744588348.7412798,End of Frame 5947
5947,1744588348.7474885,Start Get Vehicle Position (on manual_control.py Side)
5947,1744588348.7475033,End Get Vehicle Position (on manual_control.py Side)
5947,1744588348.7474895,Start Get Vehicle Position (on record.py Side)
5947,1744588348.747502,End Get Vehicle Position (on record.py Side)
5947,1744588348.7412872,Start of Frame 5947
5947,1744588348.7524958,End of Frame 5947
5948,1744588348.7634938,Start Get Vehicle Position (on manual_control.py Side)
5948,1744588348.7635083,End Get Vehicle Position (on manual_control.py Side)
5948,1744588348.7634952,Start Get Vehicle Position (on record.py Side)
5948,1744588348.763507,End Get Vehicle Position (on record.py Side)
5947,1744588348.7496338,Start of Saving Image: frame_5947.png
5947,1744588348.764899,End of Saving Image: frame_5947.png
5948,1744588348.7525094,Start of Frame 5948
5948,1744588348.7690303,End of Frame 5948
5949,1744588348.7799158,Start Get Vehicle Position (on manual_control.py Side)
5949,1744588348.779928,End Get Vehicle Position (on manual_control.py Side)
5949,1744588348.7799165,Start Get Vehicle Position (on record.py Side)
5949,1744588348.7799268,End Get Vehicle Position (on record.py Side)
5949,1744588348.7690418,Start of Frame 5949
5949,1744588348.7851603,End of Frame 5949
5950,1744588348.7954893,Start Get Vehicle Position (on manual_control.py Side)
5950,1744588348.7955027,End Get Vehicle Position (on manual_control.py Side)
5950,1744588348.7954903,Start Get Vehicle Position (on record.py Side)
5950,1744588348.7955015,End Get Vehicle Position (on record.py Side)
5948,1744588348.7798054,Start of Saving Image: frame_5948.png
5948,1744588348.7968304,End of Saving Image: frame_5948.png
5950,1744588348.7851665,Start of Frame 5950
5950,1744588348.8043323,End of Frame 5950
5950,1744588348.8115835,Start Get Vehicle Position (on manual_control.py Side)
5950,1744588348.8116052,End Get Vehicle Position (on manual_control.py Side)
5950,1744588348.8115852,Start Get Vehicle Position (on record.py Side)
5950,1744588348.8116033,End Get Vehicle Position (on record.py Side)
5949,1744588348.797277,Start of Saving Image: frame_5949.png
5949,1744588348.8139,End of Saving Image: frame_5949.png
5950,1744588348.8043456,Start of Frame 5950
5950,1744588348.82409,End of Frame 5950
5951,1744588348.8275146,Start Get Vehicle Position (on manual_control.py Side)
5951,1744588348.8275347,End Get Vehicle Position (on manual_control.py Side)
5951,1744588348.8275158,Start Get Vehicle Position (on record.py Side)
5951,1744588348.8275335,End Get Vehicle Position (on record.py Side)
5950,1744588348.817461,Start of Saving Image: frame_5950.png
5950,1744588348.829601,End of Saving Image: frame_5950.png
5951,1744588348.8240988,Start of Frame 5951
5951,1744588348.8349526,End of Frame 5951
5952,1744588348.8434873,Start Get Vehicle Position (on manual_control.py Side)
5952,1744588348.8434997,End Get Vehicle Position (on manual_control.py Side)
5952,1744588348.843488,Start Get Vehicle Position (on record.py Side)
5952,1744588348.8434987,End Get Vehicle Position (on record.py Side)
5951,1744588348.8330271,Start of Saving Image: frame_5951.png
5951,1744588348.8449612,End of Saving Image: frame_5951.png
5952,1744588348.834961,Start of Frame 5952
5952,1744588348.8502526,End of Frame 5952
5953,1744588348.859492,Start Get Vehicle Position (on manual_control.py Side)
5953,1744588348.859506,End Get Vehicle Position (on manual_control.py Side)
5953,1744588348.8594935,Start Get Vehicle Position (on record.py Side)
5953,1744588348.8595052,End Get Vehicle Position (on record.py Side)
5953,1744588348.8502603,Start of Frame 5953
5953,1744588348.8668387,End of Frame 5953
5953,1744588348.8755918,Start Get Vehicle Position (on manual_control.py Side)
5953,1744588348.8756106,End Get Vehicle Position (on manual_control.py Side)
5953,1744588348.8755932,Start Get Vehicle Position (on record.py Side)
5953,1744588348.8756092,End Get Vehicle Position (on record.py Side)
5952,1744588348.8610888,Start of Saving Image: frame_5952.png
5952,1744588348.8776457,End of Saving Image: frame_5952.png
5953,1744588348.8668487,Start of Frame 5953
5953,1744588348.8864248,End of Frame 5953
5954,1744588348.89151,Start Get Vehicle Position (on manual_control.py Side)
5954,1744588348.8915281,End Get Vehicle Position (on manual_control.py Side)
5954,1744588348.8915112,Start Get Vehicle Position (on record.py Side)
5954,1744588348.8915272,End Get Vehicle Position (on record.py Side)
5953,1744588348.8788326,Start of Saving Image: frame_5953.png
5953,1744588348.8935485,End of Saving Image: frame_5953.png
5954,1744588348.8864353,Start of Frame 5954
5954,1744588348.9065318,End of Frame 5954
5955,1744588348.9075096,Start Get Vehicle Position (on manual_control.py Side)
5955,1744588348.9075298,End Get Vehicle Position (on manual_control.py Side)
5955,1744588348.9075112,Start Get Vehicle Position (on record.py Side)
5955,1744588348.9075286,End Get Vehicle Position (on record.py Side)
5954,1744588348.8988156,Start of Saving Image: frame_5954.png
5954,1744588348.9095092,End of Saving Image: frame_5954.png
5955,1744588348.9065428,Start of Frame 5955
5955,1744588348.9149547,End of Frame 5955
5956,1744588348.9240317,Start Get Vehicle Position (on manual_control.py Side)
5956,1744588348.9240873,End Get Vehicle Position (on manual_control.py Side)
5956,1744588348.9240332,Start Get Vehicle Position (on record.py Side)
5956,1744588348.924086,End Get Vehicle Position (on record.py Side)
5916,1744588348.6125007,Start of Saving Image: frame_5916.png
5916,1744588348.9271271,End of Saving Image: frame_5916.png
5956,1744588348.9149673,Start of Frame 5956
5956,1744588348.9325583,End of Frame 5956
5956,1744588348.9395783,Start Get Vehicle Position (on manual_control.py Side)
5956,1744588348.9396021,End Get Vehicle Position (on manual_control.py Side)
5956,1744588348.9395797,Start Get Vehicle Position (on record.py Side)
5956,1744588348.9396012,End Get Vehicle Position (on record.py Side)
5955,1744588348.9238224,Start of Saving Image: frame_5955.png
5955,1744588348.9416785,End of Saving Image: frame_5955.png
5956,1744588348.9420033,Start of Saving Image: frame_5956.png
5956,1744588348.9495032,End of Saving Image: frame_5956.png
5956,1744588348.9325695,Start of Frame 5956
5956,1744588348.9528186,End of Frame 5956
5957,1744588348.9554904,Start Get Vehicle Position (on manual_control.py Side)
5957,1744588348.9555042,End Get Vehicle Position (on manual_control.py Side)
5957,1744588348.9554913,Start Get Vehicle Position (on record.py Side)
5957,1744588348.955503,End Get Vehicle Position (on record.py Side)
5957,1744588348.9528258,Start of Frame 5957
5957,1744588348.9618413,End of Frame 5957
5958,1744588348.97082,Start Get Vehicle Position (on manual_control.py Side)
5958,1744588348.9708333,End Get Vehicle Position (on manual_control.py Side)
5958,1744588348.9708207,Start Get Vehicle Position (on record.py Side)
5958,1744588348.9708323,End Get Vehicle Position (on record.py Side)
5958,1744588348.9618554,Start of Frame 5958
5958,1744588348.9763622,End of Frame 5958
5959,1744588348.986583,Start Get Vehicle Position (on manual_control.py Side)
5959,1744588348.9866035,End Get Vehicle Position (on manual_control.py Side)
5959,1744588348.9865847,Start Get Vehicle Position (on record.py Side)
5959,1744588348.9866023,End Get Vehicle Position (on record.py Side)
5957,1744588348.9707239,Start of Saving Image: frame_5957.png
5957,1744588348.9886887,End of Saving Image: frame_5957.png
5959,1744588348.9763749,Start of Frame 5959
5959,1744588348.9938457,End of Frame 5959
5959,1744588349.0025716,Start Get Vehicle Position (on manual_control.py Side)
5959,1744588349.0025873,End Get Vehicle Position (on manual_control.py Side)
5959,1744588349.0025723,Start Get Vehicle Position (on record.py Side)
5959,1744588349.002586,End Get Vehicle Position (on record.py Side)
5958,1744588348.988936,Start of Saving Image: frame_5958.png
5958,1744588349.00379,End of Saving Image: frame_5958.png
5959,1744588349.0044084,Start of Saving Image: frame_5959.png
5959,1744588349.011997,End of Saving Image: frame_5959.png
5959,1744588348.9938552,Start of Frame 5959
5959,1744588349.0141532,End of Frame 5959
5960,1744588349.0184903,Start Get Vehicle Position (on manual_control.py Side)
5960,1744588349.0185049,End Get Vehicle Position (on manual_control.py Side)
5960,1744588349.018491,Start Get Vehicle Position (on record.py Side)
5960,1744588349.018504,End Get Vehicle Position (on record.py Side)
5960,1744588349.0141616,Start of Frame 5960
5960,1744588349.024079,End of Frame 5960
5961,1744588349.0349193,Start Get Vehicle Position (on manual_control.py Side)
5961,1744588349.0349307,End Get Vehicle Position (on manual_control.py Side)
5961,1744588349.03492,Start Get Vehicle Position (on record.py Side)
5961,1744588349.0349302,End Get Vehicle Position (on record.py Side)
5961,1744588349.0240862,Start of Frame 5961
5961,1744588349.0398853,End of Frame 5961
5962,1744588349.0505428,Start Get Vehicle Position (on manual_control.py Side)
5962,1744588349.0505564,End Get Vehicle Position (on manual_control.py Side)
5962,1744588349.0505438,Start Get Vehicle Position (on record.py Side)
5962,1744588349.0505555,End Get Vehicle Position (on record.py Side)
5960,1744588349.0348384,Start of Saving Image: frame_5960.png
5960,1744588349.051726,End of Saving Image: frame_5960.png
5962,1744588349.0398962,Start of Frame 5962
5962,1744588349.0552688,End of Frame 5962
5963,1744588349.066617,Start Get Vehicle Position (on manual_control.py Side)
5963,1744588349.0666358,End Get Vehicle Position (on manual_control.py Side)
5963,1744588349.0666182,Start Get Vehicle Position (on record.py Side)
5963,1744588349.0666344,End Get Vehicle Position (on record.py Side)
5961,1744588349.0519722,Start of Saving Image: frame_5961.png
5961,1744588349.067905,End of Saving Image: frame_5961.png
5963,1744588349.0552764,Start of Frame 5963
5963,1744588349.0741315,End of Frame 5963
5963,1744588349.0825734,Start Get Vehicle Position (on manual_control.py Side)
5963,1744588349.0825884,End Get Vehicle Position (on manual_control.py Side)
5963,1744588349.0825746,Start Get Vehicle Position (on record.py Side)
5963,1744588349.0825872,End Get Vehicle Position (on record.py Side)
5962,1744588349.068216,Start of Saving Image: frame_5962.png
5962,1744588349.0838735,End of Saving Image: frame_5962.png
5963,1744588349.0841029,Start of Saving Image: frame_5963.png
5963,1744588349.093663,End of Saving Image: frame_5963.png
5963,1744588349.0741377,Start of Frame 5963
5963,1744588349.0939589,End of Frame 5963
5964,1744588349.0984771,Start Get Vehicle Position (on manual_control.py Side)
5964,1744588349.09849,End Get Vehicle Position (on manual_control.py Side)
5964,1744588349.098478,Start Get Vehicle Position (on record.py Side)
5964,1744588349.098489,End Get Vehicle Position (on record.py Side)
5964,1744588349.0939636,Start of Frame 5964
5964,1744588349.1038187,End of Frame 5964
5965,1744588349.114674,Start Get Vehicle Position (on manual_control.py Side)
5965,1744588349.1146934,End Get Vehicle Position (on manual_control.py Side)
5965,1744588349.1146755,Start Get Vehicle Position (on record.py Side)
5965,1744588349.1146917,End Get Vehicle Position (on record.py Side)
5965,1744588349.103837,Start of Frame 5965
5965,1744588349.1209471,End of Frame 5965
5966,1744588349.1306186,Start Get Vehicle Position (on manual_control.py Side)
5966,1744588349.1306326,End Get Vehicle Position (on manual_control.py Side)
5966,1744588349.13062,Start Get Vehicle Position (on record.py Side)
5966,1744588349.1306317,End Get Vehicle Position (on record.py Side)
5964,1744588349.1030042,Start of Saving Image: frame_5964.png
5964,1744588349.131848,End of Saving Image: frame_5964.png
5966,1744588349.1209586,Start of Frame 5966
5966,1744588349.1354272,End of Frame 5966
5966,1744588349.1465716,Start Get Vehicle Position (on manual_control.py Side)
5966,1744588349.1465871,End Get Vehicle Position (on manual_control.py Side)
5966,1744588349.1465728,Start Get Vehicle Position (on record.py Side)
5966,1744588349.1465862,End Get Vehicle Position (on record.py Side)
5965,1744588349.1321046,Start of Saving Image: frame_5965.png
5965,1744588349.147787,End of Saving Image: frame_5965.png
5966,1744588349.148937,Start of Saving Image: frame_5966.png
5966,1744588349.158182,End of Saving Image: frame_5966.png
5966,1744588349.1354349,Start of Frame 5966
5966,1744588349.1589298,End of Frame 5966
5967,1744588349.1625087,Start Get Vehicle Position (on manual_control.py Side)
5967,1744588349.1625285,End Get Vehicle Position (on manual_control.py Side)
5967,1744588349.16251,Start Get Vehicle Position (on record.py Side)
5967,1744588349.1625276,End Get Vehicle Position (on record.py Side)
5967,1744588349.1589382,Start of Frame 5967
5967,1744588349.17029,End of Frame 5967
5968,1744588349.178968,Start Get Vehicle Position (on manual_control.py Side)
5968,1744588349.1789846,End Get Vehicle Position (on manual_control.py Side)
5968,1744588349.1789694,Start Get Vehicle Position (on record.py Side)
5968,1744588349.1789837,End Get Vehicle Position (on record.py Side)
5968,1744588349.170301,Start of Frame 5968
5968,1744588349.1851666,End of Frame 5968
5969,1744588349.1945572,Start Get Vehicle Position (on manual_control.py Side)
5969,1744588349.1945775,End Get Vehicle Position (on manual_control.py Side)
5969,1744588349.1945586,Start Get Vehicle Position (on record.py Side)
5969,1744588349.1945755,End Get Vehicle Position (on record.py Side)
5967,1744588349.1788564,Start of Saving Image: frame_5967.png
5967,1744588349.196387,End of Saving Image: frame_5967.png
5968,1744588349.1966352,Start of Saving Image: frame_5968.png
5968,1744588349.203706,End of Saving Image: frame_5968.png
5969,1744588349.1851776,Start of Frame 5969
5969,1744588349.2048018,End of Frame 5969
5969,1744588349.2104917,Start Get Vehicle Position (on manual_control.py Side)
5969,1744588349.2105079,End Get Vehicle Position (on manual_control.py Side)
5969,1744588349.2104924,Start Get Vehicle Position (on record.py Side)
5969,1744588349.2105064,End Get Vehicle Position (on record.py Side)
5969,1744588349.204808,Start of Frame 5969
5969,1744588349.2150836,End of Frame 5969
5970,1744588349.226639,Start Get Vehicle Position (on manual_control.py Side)
5970,1744588349.2266636,End Get Vehicle Position (on manual_control.py Side)
5970,1744588349.226641,Start Get Vehicle Position (on record.py Side)
5970,1744588349.2266624,End Get Vehicle Position (on record.py Side)
5969,1744588349.2124743,Start of Saving Image: frame_5969.png
5969,1744588349.22866,End of Saving Image: frame_5969.png
5970,1744588349.2150903,Start of Frame 5970
5970,1744588349.23307,End of Frame 5970
5971,1744588349.2430441,Start Get Vehicle Position (on manual_control.py Side)
5971,1744588349.2430565,End Get Vehicle Position (on manual_control.py Side)
5971,1744588349.2430449,Start Get Vehicle Position (on record.py Side)
5971,1744588349.2430556,End Get Vehicle Position (on record.py Side)
5971,1744588349.2330763,Start of Frame 5971
5971,1744588349.2493794,End of Frame 5971
5972,1744588349.2586217,Start Get Vehicle Position (on manual_control.py Side)
5972,1744588349.2586348,End Get Vehicle Position (on manual_control.py Side)
5972,1744588349.258623,Start Get Vehicle Position (on record.py Side)
5972,1744588349.258634,End Get Vehicle Position (on record.py Side)
5970,1744588349.2428353,Start of Saving Image: frame_5970.png
5970,1744588349.2597177,End of Saving Image: frame_5970.png
5972,1744588349.2493916,Start of Frame 5972
5972,1744588349.2689402,End of Frame 5972
5972,1744588349.2745123,Start Get Vehicle Position (on manual_control.py Side)
5972,1744588349.274528,End Get Vehicle Position (on manual_control.py Side)
5972,1744588349.2745137,Start Get Vehicle Position (on record.py Side)
5972,1744588349.274527,End Get Vehicle Position (on record.py Side)
5971,1744588349.2599473,Start of Saving Image: frame_5971.png
5971,1744588349.275609,End of Saving Image: frame_5971.png
5972,1744588349.2689474,Start of Frame 5972
5972,1744588349.2833009,End of Frame 5972
5973,1744588349.2905724,Start Get Vehicle Position (on manual_control.py Side)
5973,1744588349.2905881,End Get Vehicle Position (on manual_control.py Side)
5973,1744588349.2905734,Start Get Vehicle Position (on record.py Side)
5973,1744588349.2905872,End Get Vehicle Position (on record.py Side)
5972,1744588349.2777853,Start of Saving Image: frame_5972.png
5972,1744588349.291903,End of Saving Image: frame_5972.png
5973,1744588349.283309,Start of Frame 5973
5973,1744588349.2955766,End of Frame 5973
5974,1744588349.3071127,Start Get Vehicle Position (on manual_control.py Side)
5974,1744588349.307132,End Get Vehicle Position (on manual_control.py Side)
5974,1744588349.3071141,Start Get Vehicle Position (on record.py Side)
5974,1744588349.3071306,End Get Vehicle Position (on record.py Side)
5974,1744588349.2955844,Start of Frame 5974
5974,1744588349.3141334,End of Frame 5974
5975,1744588349.3226025,Start Get Vehicle Position (on manual_control.py Side)
5975,1744588349.3226173,End Get Vehicle Position (on manual_control.py Side)
5975,1744588349.3226037,Start Get Vehicle Position (on record.py Side)
5975,1744588349.3226163,End Get Vehicle Position (on record.py Side)
5973,1744588349.306923,Start of Saving Image: frame_5973.png
5973,1744588349.3237586,End of Saving Image: frame_5973.png
5918,1744588348.9323175,Start of Saving Image: frame_5918.png
5918,1744588349.3269618,End of Saving Image: frame_5918.png
5975,1744588349.314145,Start of Frame 5975
5975,1744588349.3335824,End of Frame 5975
5976,1744588349.3385096,Start Get Vehicle Position (on manual_control.py Side)
5976,1744588349.3385282,End Get Vehicle Position (on manual_control.py Side)
5976,1744588349.3385108,Start Get Vehicle Position (on record.py Side)
5976,1744588349.338527,End Get Vehicle Position (on record.py Side)
5974,1744588349.3240042,Start of Saving Image: frame_5974.png
5974,1744588349.3408854,End of Saving Image: frame_5974.png
5976,1744588349.333593,Start of Frame 5976
5976,1744588349.347578,End of Frame 5976
5976,1744588349.3545089,Start Get Vehicle Position (on manual_control.py Side)
5976,1744588349.3545225,End Get Vehicle Position (on manual_control.py Side)
5976,1744588349.3545098,Start Get Vehicle Position (on record.py Side)
5976,1744588349.3545213,End Get Vehicle Position (on record.py Side)
5975,1744588349.3413885,Start of Saving Image: frame_5975.png
5975,1744588349.3556805,End of Saving Image: frame_5975.png
5976,1744588349.3568773,Start of Saving Image: frame_5976.png
5976,1744588349.3663642,End of Saving Image: frame_5976.png
5976,1744588349.3475888,Start of Frame 5976
5976,1744588349.3676207,End of Frame 5976
5977,1744588349.3704877,Start Get Vehicle Position (on manual_control.py Side)
5977,1744588349.3705025,End Get Vehicle Position (on manual_control.py Side)
5977,1744588349.370489,Start Get Vehicle Position (on record.py Side)
5977,1744588349.3705013,End Get Vehicle Position (on record.py Side)
5977,1744588349.3676264,Start of Frame 5977
5977,1744588349.3757584,End of Frame 5977
5978,1744588349.3879097,Start Get Vehicle Position (on manual_control.py Side)
5978,1744588349.3879244,End Get Vehicle Position (on manual_control.py Side)
5978,1744588349.3879106,Start Get Vehicle Position (on record.py Side)
5978,1744588349.3879225,End Get Vehicle Position (on record.py Side)
5978,1744588349.3757699,Start of Frame 5978
5978,1744588349.393482,End of Frame 5978
5979,1744588349.403633,Start Get Vehicle Position (on manual_control.py Side)
5979,1744588349.4036584,End Get Vehicle Position (on manual_control.py Side)
5979,1744588349.4036345,Start Get Vehicle Position (on record.py Side)
5979,1744588349.4036515,End Get Vehicle Position (on record.py Side)
5977,1744588349.3877082,Start of Saving Image: frame_5977.png
5977,1744588349.405573,End of Saving Image: frame_5977.png
5979,1744588349.3935041,Start of Frame 5979
5979,1744588349.4113312,End of Frame 5979
5980,1744588349.4195185,Start Get Vehicle Position (on manual_control.py Side)
5980,1744588349.419534,End Get Vehicle Position (on manual_control.py Side)
5980,1744588349.4195197,Start Get Vehicle Position (on record.py Side)
5980,1744588349.4195325,End Get Vehicle Position (on record.py Side)
5978,1744588349.4058137,Start of Saving Image: frame_5978.png
5978,1744588349.4206893,End of Saving Image: frame_5978.png
5980,1744588349.4113438,Start of Frame 5980
5980,1744588349.4256637,End of Frame 5980
5981,1744588349.4356089,Start Get Vehicle Position (on manual_control.py Side)
5981,1744588349.435629,End Get Vehicle Position (on manual_control.py Side)
5981,1744588349.43561,Start Get Vehicle Position (on record.py Side)
5981,1744588349.4356275,End Get Vehicle Position (on record.py Side)
5979,1744588349.4210126,Start of Saving Image: frame_5979.png
5979,1744588349.4374506,End of Saving Image: frame_5979.png
5981,1744588349.4256747,Start of Frame 5981
5981,1744588349.4456065,End of Frame 5981
5981,1744588349.4515362,Start Get Vehicle Position (on manual_control.py Side)
5981,1744588349.4515553,End Get Vehicle Position (on manual_control.py Side)
5981,1744588349.4515374,Start Get Vehicle Position (on record.py Side)
5981,1744588349.451554,End Get Vehicle Position (on record.py Side)
5980,1744588349.4385748,Start of Saving Image: frame_5980.png
5980,1744588349.4539382,End of Saving Image: frame_5980.png
5981,1744588349.4456198,Start of Frame 5981
5981,1744588349.4641724,End of Frame 5981
5982,1744588349.4674997,Start Get Vehicle Position (on manual_control.py Side)
5982,1744588349.4675145,End Get Vehicle Position (on manual_control.py Side)
5982,1744588349.4675007,Start Get Vehicle Position (on record.py Side)
5982,1744588349.4675138,End Get Vehicle Position (on record.py Side)
5981,1744588349.4585392,Start of Saving Image: frame_5981.png
5981,1744588349.4686885,End of Saving Image: frame_5981.png
5982,1744588349.4641788,Start of Frame 5982
5982,1744588349.4737937,End of Frame 5982
5983,1744588349.4837453,Start Get Vehicle Position (on manual_control.py Side)
5983,1744588349.4837613,End Get Vehicle Position (on manual_control.py Side)
5983,1744588349.4837465,Start Get Vehicle Position (on record.py Side)
5983,1744588349.4837604,End Get Vehicle Position (on record.py Side)
5982,1744588349.4725955,Start of Saving Image: frame_5982.png
5982,1744588349.485305,End of Saving Image: frame_5982.png
5983,1744588349.4738002,Start of Frame 5983
5983,1744588349.4905941,End of Frame 5983
5984,1744588349.4999678,Start Get Vehicle Position (on manual_control.py Side)
5984,1744588349.49998,End Get Vehicle Position (on manual_control.py Side)
5984,1744588349.4999688,Start Get Vehicle Position (on record.py Side)
5984,1744588349.499979,End Get Vehicle Position (on record.py Side)
5984,1744588349.4906003,Start of Frame 5984
5984,1744588349.505898,End of Frame 5984
5985,1744588349.5156054,Start Get Vehicle Position (on manual_control.py Side)
5985,1744588349.5156198,End Get Vehicle Position (on manual_control.py Side)
5985,1744588349.5156066,Start Get Vehicle Position (on record.py Side)
5985,1744588349.515619,End Get Vehicle Position (on record.py Side)
5983,1744588349.4997427,Start of Saving Image: frame_5983.png
5983,1744588349.5168505,End of Saving Image: frame_5983.png
5984,1744588349.5171795,Start of Saving Image: frame_5984.png
5984,1744588349.524798,End of Saving Image: frame_5984.png
5985,1744588349.505905,Start of Frame 5985
5985,1744588349.526395,End of Frame 5985
5985,1744588349.5315247,Start Get Vehicle Position (on manual_control.py Side)
5985,1744588349.5315373,End Get Vehicle Position (on manual_control.py Side)
5985,1744588349.5315256,Start Get Vehicle Position (on record.py Side)
5985,1744588349.5315366,End Get Vehicle Position (on record.py Side)
5985,1744588349.5264008,Start of Frame 5985
5985,1744588349.5367703,End of Frame 5985
5986,1744588349.5480404,Start Get Vehicle Position (on manual_control.py Side)
5986,1744588349.5480545,End Get Vehicle Position (on manual_control.py Side)
5986,1744588349.5480416,Start Get Vehicle Position (on record.py Side)
5986,1744588349.5480535,End Get Vehicle Position (on record.py Side)
5986,1744588349.5367785,Start of Frame 5986
5986,1744588349.5529044,End of Frame 5986
5987,1744588349.5636616,Start Get Vehicle Position (on manual_control.py Side)
5987,1744588349.5636766,End Get Vehicle Position (on manual_control.py Side)
5987,1744588349.5636628,Start Get Vehicle Position (on record.py Side)
5987,1744588349.5636756,End Get Vehicle Position (on record.py Side)
5985,1744588349.5478394,Start of Saving Image: frame_5985.png
5985,1744588349.5649557,End of Saving Image: frame_5985.png
5987,1744588349.55291,Start of Frame 5987
5987,1744588349.571477,End of Frame 5987
5987,1744588349.5795903,Start Get Vehicle Position (on manual_control.py Side)
5987,1744588349.5796053,End Get Vehicle Position (on manual_control.py Side)
5987,1744588349.5795915,Start Get Vehicle Position (on record.py Side)
5987,1744588349.5796041,End Get Vehicle Position (on record.py Side)
5986,1744588349.5652094,Start of Saving Image: frame_5986.png
5986,1744588349.5808094,End of Saving Image: frame_5986.png
5987,1744588349.5814548,Start of Saving Image: frame_5987.png
5987,1744588349.5889287,End of Saving Image: frame_5987.png
5987,1744588349.571488,Start of Frame 5987
5987,1744588349.5922189,End of Frame 5987
5988,1744588349.5955062,Start Get Vehicle Position (on manual_control.py Side)
5988,1744588349.5955212,End Get Vehicle Position (on manual_control.py Side)
5988,1744588349.595507,Start Get Vehicle Position (on record.py Side)
5988,1744588349.5955203,End Get Vehicle Position (on record.py Side)
5988,1744588349.5922236,Start of Frame 5988
5988,1744588349.6018717,End of Frame 5988
5989,1744588349.61159,Start Get Vehicle Position (on manual_control.py Side)
5989,1744588349.6116045,End Get Vehicle Position (on manual_control.py Side)
5989,1744588349.6115909,Start Get Vehicle Position (on record.py Side)
5989,1744588349.6116033,End Get Vehicle Position (on record.py Side)
5989,1744588349.6018813,Start of Frame 5989
5989,1744588349.6174445,End of Frame 5989
5990,1744588349.627562,Start Get Vehicle Position (on manual_control.py Side)
5990,1744588349.627576,End Get Vehicle Position (on manual_control.py Side)
5990,1744588349.6275632,Start Get Vehicle Position (on record.py Side)
5990,1744588349.6275752,End Get Vehicle Position (on record.py Side)
5988,1744588349.6016822,Start of Saving Image: frame_5988.png
5988,1744588349.6287389,End of Saving Image: frame_5988.png
5990,1744588349.6174536,Start of Frame 5990
5990,1744588349.633522,End of Frame 5990
5991,1744588349.6436124,Start Get Vehicle Position (on manual_control.py Side)
5991,1744588349.6436288,End Get Vehicle Position (on manual_control.py Side)
5991,1744588349.6436136,Start Get Vehicle Position (on record.py Side)
5991,1744588349.6436267,End Get Vehicle Position (on record.py Side)
5989,1744588349.6290727,Start of Saving Image: frame_5989.png
5989,1744588349.6447415,End of Saving Image: frame_5989.png
5990,1744588349.6450582,Start of Saving Image: frame_5990.png
5990,1744588349.6539516,End of Saving Image: frame_5990.png
5991,1744588349.633532,Start of Frame 5991
5991,1744588349.6550488,End of Frame 5991
5991,1744588349.659476,Start Get Vehicle Position (on manual_control.py Side)
5991,1744588349.6594872,End Get Vehicle Position (on manual_control.py Side)
5991,1744588349.6594768,Start Get Vehicle Position (on record.py Side)
5991,1744588349.6594865,End Get Vehicle Position (on record.py Side)
5991,1744588349.655053,Start of Frame 5991
5991,1744588349.6640754,End of Frame 5991
5992,1744588349.6758988,Start Get Vehicle Position (on manual_control.py Side)
5992,1744588349.6759138,End Get Vehicle Position (on manual_control.py Side)
5992,1744588349.6759,Start Get Vehicle Position (on record.py Side)
5992,1744588349.6759124,End Get Vehicle Position (on record.py Side)
5919,1744588349.3385592,Start of Saving Image: frame_5919.png
5919,1744588349.6774466,End of Saving Image: frame_5919.png
5992,1744588349.6640823,Start of Frame 5992
5992,1744588349.6823874,End of Frame 5992
5993,1744588349.6915905,Start Get Vehicle Position (on manual_control.py Side)
5993,1744588349.6916044,End Get Vehicle Position (on manual_control.py Side)
5993,1744588349.6915917,Start Get Vehicle Position (on record.py Side)
5993,1744588349.6916034,End Get Vehicle Position (on record.py Side)
5993,1744588349.682393,Start of Frame 5993
5993,1744588349.697048,End of Frame 5993
5994,1744588349.7075632,Start Get Vehicle Position (on manual_control.py Side)
5994,1744588349.707576,End Get Vehicle Position (on manual_control.py Side)
5994,1744588349.7075644,Start Get Vehicle Position (on record.py Side)
5994,1744588349.7075753,End Get Vehicle Position (on record.py Side)
5991,1744588349.6757483,Start of Saving Image: frame_5991.png
5991,1744588349.7086399,End of Saving Image: frame_5991.png
5992,1744588349.7088923,Start of Saving Image: frame_5992.png
5992,1744588349.7158754,End of Saving Image: frame_5992.png
5994,1744588349.6970553,Start of Frame 5994
5994,1744588349.7198315,End of Frame 5994
5994,1744588349.72356,Start Get Vehicle Position (on manual_control.py Side)
5994,1744588349.7235732,End Get Vehicle Position (on manual_control.py Side)
5994,1744588349.7235615,Start Get Vehicle Position (on record.py Side)
5994,1744588349.7235723,End Get Vehicle Position (on record.py Side)
5993,1744588349.7161407,Start of Saving Image: frame_5993.png
5993,1744588349.7247856,End of Saving Image: frame_5993.png
5994,1744588349.7198396,Start of Frame 5994
5994,1744588349.7298841,End of Frame 5994
5995,1744588349.7399783,Start Get Vehicle Position (on manual_control.py Side)
5995,1744588349.7399962,End Get Vehicle Position (on manual_control.py Side)
5995,1744588349.7399797,Start Get Vehicle Position (on record.py Side)
5995,1744588349.7399952,End Get Vehicle Position (on record.py Side)
5994,1744588349.739633,Start of Saving Image: frame_5994.png
5994,1744588349.7488678,End of Saving Image: frame_5994.png
5995,1744588349.729894,Start of Frame 5995
5995,1744588349.749001,End of Frame 5995
5996,1744588349.7555106,Start Get Vehicle Position (on manual_control.py Side)
5996,1744588349.7555299,End Get Vehicle Position (on manual_control.py Side)
5996,1744588349.7555122,Start Get Vehicle Position (on record.py Side)
5996,1744588349.7555287,End Get Vehicle Position (on record.py Side)
5996,1744588349.7490096,Start of Frame 5996
5996,1744588349.7662416,End of Frame 5996
5996,1744588349.7715127,Start Get Vehicle Position (on manual_control.py Side)
5996,1744588349.7715316,End Get Vehicle Position (on manual_control.py Side)
5996,1744588349.7715142,Start Get Vehicle Position (on record.py Side)
5996,1744588349.7715302,End Get Vehicle Position (on record.py Side)
5995,1744588349.7558339,Start of Saving Image: frame_5995.png
5995,1744588349.77365,End of Saving Image: frame_5995.png
5996,1744588349.7662542,Start of Frame 5996
5996,1744588349.778373,End of Frame 5996
5997,1744588349.7875845,Start Get Vehicle Position (on manual_control.py Side)
5997,1744588349.787601,End Get Vehicle Position (on manual_control.py Side)
5997,1744588349.7875857,Start Get Vehicle Position (on record.py Side)
5997,1744588349.7875996,End Get Vehicle Position (on record.py Side)
5996,1744588349.774575,Start of Saving Image: frame_5996.png
5996,1744588349.7888772,End of Saving Image: frame_5996.png
5997,1744588349.778385,Start of Frame 5997
5997,1744588349.7941976,End of Frame 5997
5998,1744588349.803854,Start Get Vehicle Position (on manual_control.py Side)
5998,1744588349.8038676,End Get Vehicle Position (on manual_control.py Side)
5998,1744588349.8038552,Start Get Vehicle Position (on record.py Side)
5998,1744588349.8038664,End Get Vehicle Position (on record.py Side)
5998,1744588349.7942088,Start of Frame 5998
5998,1744588349.8112764,End of Frame 5998
5999,1744588349.8196268,Start Get Vehicle Position (on manual_control.py Side)
5999,1744588349.8196478,End Get Vehicle Position (on manual_control.py Side)
5999,1744588349.8196282,Start Get Vehicle Position (on record.py Side)
5999,1744588349.8196461,End Get Vehicle Position (on record.py Side)
5997,1744588349.8037133,Start of Saving Image: frame_5997.png
5997,1744588349.8217242,End of Saving Image: frame_5997.png
5999,1744588349.811287,Start of Frame 5999
5999,1744588349.826605,End of Frame 5999
5999,1744588349.8355463,Start Get Vehicle Position (on manual_control.py Side)
5999,1744588349.8355606,End Get Vehicle Position (on manual_control.py Side)
5999,1744588349.8355474,Start Get Vehicle Position (on record.py Side)
5999,1744588349.8355596,End Get Vehicle Position (on record.py Side)
5998,1744588349.8219752,Start of Saving Image: frame_5998.png
5998,1744588349.836669,End of Saving Image: frame_5998.png
5999,1744588349.8369415,Start of Saving Image: frame_5999.png
5999,1744588349.8440287,End of Saving Image: frame_5999.png
5999,1744588349.826613,Start of Frame 5999
5999,1744588349.8485157,End of Frame 5999
6000,1744588349.8514762,Start Get Vehicle Position (on manual_control.py Side)
6000,1744588349.8514903,End Get Vehicle Position (on manual_control.py Side)
6000,1744588349.8514771,Start Get Vehicle Position (on record.py Side)
6000,1744588349.8514893,End Get Vehicle Position (on record.py Side)
6000,1744588349.8485205,Start of Frame 6000
6000,1744588349.8570995,End of Frame 6000
6001,1744588349.8680503,Start Get Vehicle Position (on manual_control.py Side)
6001,1744588349.8680637,End Get Vehicle Position (on manual_control.py Side)
6001,1744588349.8680515,Start Get Vehicle Position (on record.py Side)
6001,1744588349.8680625,End Get Vehicle Position (on record.py Side)
6001,1744588349.8571103,Start of Frame 6001
6001,1744588349.8728688,End of Frame 6001
6002,1744588349.8836348,Start Get Vehicle Position (on manual_control.py Side)
6002,1744588349.8836496,End Get Vehicle Position (on manual_control.py Side)
6002,1744588349.8836358,Start Get Vehicle Position (on record.py Side)
6002,1744588349.8836484,End Get Vehicle Position (on record.py Side)
6000,1744588349.8679314,Start of Saving Image: frame_6000.png
6000,1744588349.884856,End of Saving Image: frame_6000.png
6001,1744588349.8851562,Start of Saving Image: frame_6001.png
6001,1744588349.892818,End of Saving Image: frame_6001.png
6002,1744588349.8728757,Start of Frame 6002
6002,1744588349.8934152,End of Frame 6002
6002,1744588349.899504,Start Get Vehicle Position (on manual_control.py Side)
6002,1744588349.8995268,End Get Vehicle Position (on manual_control.py Side)
6002,1744588349.8995051,Start Get Vehicle Position (on record.py Side)
6002,1744588349.8995228,End Get Vehicle Position (on record.py Side)
6002,1744588349.9018245,Start of Saving Image: frame_6002.png
6002,1744588349.9096456,End of Saving Image: frame_6002.png
6002,1744588349.8934224,Start of Frame 6002
6002,1744588349.914283,End of Frame 6002
6003,1744588349.9154756,Start Get Vehicle Position (on manual_control.py Side)
6003,1744588349.915488,End Get Vehicle Position (on manual_control.py Side)
6003,1744588349.9154768,Start Get Vehicle Position (on record.py Side)
6003,1744588349.9154873,End Get Vehicle Position (on record.py Side)
6003,1744588349.9142897,Start of Frame 6003
6003,1744588349.9214008,End of Frame 6003
6004,1744588349.9318807,Start Get Vehicle Position (on manual_control.py Side)
6004,1744588349.9318933,End Get Vehicle Position (on manual_control.py Side)
6004,1744588349.9318817,Start Get Vehicle Position (on record.py Side)
6004,1744588349.9318922,End Get Vehicle Position (on record.py Side)
6004,1744588349.9214098,Start of Frame 6004
6004,1744588349.9372396,End of Frame 6004
6005,1744588349.947531,Start Get Vehicle Position (on manual_control.py Side)
6005,1744588349.9475455,End Get Vehicle Position (on manual_control.py Side)
6005,1744588349.9475327,Start Get Vehicle Position (on record.py Side)
6005,1744588349.9475443,End Get Vehicle Position (on record.py Side)
6003,1744588349.9317684,Start of Saving Image: frame_6003.png
6003,1744588349.9486845,End of Saving Image: frame_6003.png
5920,1744588349.6821682,Start of Saving Image: frame_5920.png
5920,1744588349.9488096,End of Saving Image: frame_5920.png
6005,1744588349.9372454,Start of Frame 6005
6005,1744588349.9584265,End of Frame 6005
6005,1744588349.962504,Start Get Vehicle Position (on manual_control.py Side)
6005,1744588349.9625251,End Get Vehicle Position (on manual_control.py Side)
6005,1744588349.9625056,Start Get Vehicle Position (on record.py Side)
6005,1744588349.962524,End Get Vehicle Position (on record.py Side)
6004,1744588349.9539816,Start of Saving Image: frame_6004.png
6004,1744588349.964854,End of Saving Image: frame_6004.png
6005,1744588349.9584475,Start of Frame 6005
6005,1744588349.9778352,End of Frame 6005
6006,1744588349.9784994,Start Get Vehicle Position (on manual_control.py Side)
6006,1744588349.978518,End Get Vehicle Position (on manual_control.py Side)
6006,1744588349.9785006,Start Get Vehicle Position (on record.py Side)
6006,1744588349.9785168,End Get Vehicle Position (on record.py Side)
6005,1744588349.9719834,Start of Saving Image: frame_6005.png
6005,1744588349.9826486,End of Saving Image: frame_6005.png
6006,1744588349.9778464,Start of Frame 6006
6006,1744588349.9865594,End of Frame 6006
6007,1744588349.9948552,Start Get Vehicle Position (on manual_control.py Side)
6007,1744588349.994873,End Get Vehicle Position (on manual_control.py Side)
6007,1744588349.9948566,Start Get Vehicle Position (on record.py Side)
6007,1744588349.9948719,End Get Vehicle Position (on record.py Side)
6007,1744588349.9865696,Start of Frame 6007
6007,1744588350.0027974,End of Frame 6007
6008,1744588350.0104907,Start Get Vehicle Position (on manual_control.py Side)
6008,1744588350.0105062,End Get Vehicle Position (on manual_control.py Side)
6008,1744588350.010493,Start Get Vehicle Position (on record.py Side)
6008,1744588350.0105052,End Get Vehicle Position (on record.py Side)
6006,1744588349.9946427,Start of Saving Image: frame_6006.png
6006,1744588350.0118802,End of Saving Image: frame_6006.png
6008,1744588350.002806,Start of Frame 6008
6008,1744588350.018748,End of Frame 6008
6008,1744588350.0266263,Start Get Vehicle Position (on manual_control.py Side)
6008,1744588350.0266442,End Get Vehicle Position (on manual_control.py Side)
6008,1744588350.0266275,Start Get Vehicle Position (on record.py Side)
6008,1744588350.026643,End Get Vehicle Position (on record.py Side)
6007,1744588350.0122378,Start of Saving Image: frame_6007.png
6007,1744588350.027879,End of Saving Image: frame_6007.png
6008,1744588350.031988,Start of Saving Image: frame_6008.png
6008,1744588350.0399017,End of Saving Image: frame_6008.png
6008,1744588350.0187566,Start of Frame 6008
6008,1744588350.0399177,End of Frame 6008
6009,1744588350.0424807,Start Get Vehicle Position (on manual_control.py Side)
6009,1744588350.0424948,End Get Vehicle Position (on manual_control.py Side)
6009,1744588350.0424814,Start Get Vehicle Position (on record.py Side)
6009,1744588350.0424933,End Get Vehicle Position (on record.py Side)
6009,1744588350.0399225,Start of Frame 6009
6009,1744588350.04776,End of Frame 6009
6010,1744588350.0588539,Start Get Vehicle Position (on manual_control.py Side)
6010,1744588350.0588675,End Get Vehicle Position (on manual_control.py Side)
6010,1744588350.0588548,Start Get Vehicle Position (on record.py Side)
6010,1744588350.0588665,End Get Vehicle Position (on record.py Side)
6010,1744588350.0477684,Start of Frame 6010
6010,1744588350.06687,End of Frame 6010
6011,1744588350.0745442,Start Get Vehicle Position (on manual_control.py Side)
6011,1744588350.0745592,End Get Vehicle Position (on manual_control.py Side)
6011,1744588350.0745454,Start Get Vehicle Position (on record.py Side)
6011,1744588350.074558,End Get Vehicle Position (on record.py Side)
6009,1744588350.0587296,Start of Saving Image: frame_6009.png
6009,1744588350.0756185,End of Saving Image: frame_6009.png
6011,1744588350.0668836,Start of Frame 6011
6011,1744588350.08213,End of Frame 6011
6011,1744588350.090542,Start Get Vehicle Position (on manual_control.py Side)
6011,1744588350.0905569,End Get Vehicle Position (on manual_control.py Side)
6011,1744588350.090543,Start Get Vehicle Position (on record.py Side)
6011,1744588350.0905557,End Get Vehicle Position (on record.py Side)
6010,1744588350.0758762,Start of Saving Image: frame_6010.png
6010,1744588350.0916965,End of Saving Image: frame_6010.png
6011,1744588350.0920343,Start of Saving Image: frame_6011.png
6011,1744588350.0989704,End of Saving Image: frame_6011.png
6011,1744588350.0821376,Start of Frame 6011
6011,1744588350.1015007,End of Frame 6011
6012,1744588350.106467,Start Get Vehicle Position (on manual_control.py Side)
6012,1744588350.1064796,End Get Vehicle Position (on manual_control.py Side)
6012,1744588350.1064677,Start Get Vehicle Position (on record.py Side)
6012,1744588350.106479,End Get Vehicle Position (on record.py Side)
6012,1744588350.101513,Start of Frame 6012
6012,1744588350.11182,End of Frame 6012
6013,1744588350.122853,Start Get Vehicle Position (on manual_control.py Side)
6013,1744588350.1228719,End Get Vehicle Position (on manual_control.py Side)
6013,1744588350.1228545,Start Get Vehicle Position (on record.py Side)
6013,1744588350.1228702,End Get Vehicle Position (on record.py Side)
6013,1744588350.111831,Start of Frame 6013
6013,1744588350.131746,End of Frame 6013
6014,1744588350.1385078,Start Get Vehicle Position (on manual_control.py Side)
6014,1744588350.1385267,End Get Vehicle Position (on manual_control.py Side)
6014,1744588350.138509,Start Get Vehicle Position (on record.py Side)
6014,1744588350.1385255,End Get Vehicle Position (on record.py Side)
6012,1744588350.1227095,Start of Saving Image: frame_6012.png
6012,1744588350.1409101,End of Saving Image: frame_6012.png
6014,1744588350.1317606,Start of Frame 6014
6014,1744588350.1479292,End of Frame 6014
6014,1744588350.1545832,Start Get Vehicle Position (on manual_control.py Side)
6014,1744588350.1546035,End Get Vehicle Position (on manual_control.py Side)
6014,1744588350.1545844,Start Get Vehicle Position (on record.py Side)
6014,1744588350.1546023,End Get Vehicle Position (on record.py Side)
6013,1744588350.1412232,Start of Saving Image: frame_6013.png
6013,1744588350.1566608,End of Saving Image: frame_6013.png
6014,1744588350.1479425,Start of Frame 6014
6014,1744588350.1686776,End of Frame 6014
6015,1744588350.1705062,Start Get Vehicle Position (on manual_control.py Side)
6015,1744588350.1705267,End Get Vehicle Position (on manual_control.py Side)
6015,1744588350.1705077,Start Get Vehicle Position (on record.py Side)
6015,1744588350.1705256,End Get Vehicle Position (on record.py Side)
6014,1744588350.1607654,Start of Saving Image: frame_6014.png
6014,1744588350.1724596,End of Saving Image: frame_6014.png
5921,1744588349.9535563,Start of Saving Image: frame_5921.png
5921,1744588350.1751187,End of Saving Image: frame_5921.png
6015,1744588350.1686902,Start of Frame 6015
6015,1744588350.1834154,End of Frame 6015
6016,1744588350.186479,Start Get Vehicle Position (on manual_control.py Side)
6016,1744588350.186492,End Get Vehicle Position (on manual_control.py Side)
6016,1744588350.1864798,Start Get Vehicle Position (on record.py Side)
6016,1744588350.1864913,End Get Vehicle Position (on record.py Side)
6016,1744588350.1834226,Start of Frame 6016
6016,1744588350.1922674,End of Frame 6016
6017,1744588350.2025845,Start Get Vehicle Position (on manual_control.py Side)
6017,1744588350.2026,End Get Vehicle Position (on manual_control.py Side)
6017,1744588350.2025862,Start Get Vehicle Position (on record.py Side)
6017,1744588350.2025988,End Get Vehicle Position (on record.py Side)
6015,1744588350.186817,Start of Saving Image: frame_6015.png
6015,1744588350.2037404,End of Saving Image: frame_6015.png
6016,1744588350.203988,Start of Saving Image: frame_6016.png
6016,1744588350.2106204,End of Saving Image: frame_6016.png
6017,1744588350.1922812,Start of Frame 6017
6017,1744588350.2120397,End of Frame 6017
6017,1744588350.2184942,Start Get Vehicle Position (on manual_control.py Side)
6017,1744588350.2185135,End Get Vehicle Position (on manual_control.py Side)
6017,1744588350.2184954,Start Get Vehicle Position (on record.py Side)
6017,1744588350.2185097,End Get Vehicle Position (on record.py Side)
6017,1744588350.2201426,Start of Saving Image: frame_6017.png
6017,1744588350.2273188,End of Saving Image: frame_6017.png
6017,1744588350.2120469,Start of Frame 6017
6017,1744588350.2304778,End of Frame 6017
6018,1744588350.23449,Start Get Vehicle Position (on manual_control.py Side)
6018,1744588350.2345052,End Get Vehicle Position (on manual_control.py Side)
6018,1744588350.2344909,Start Get Vehicle Position (on record.py Side)
6018,1744588350.2345045,End Get Vehicle Position (on record.py Side)
6018,1744588350.2304819,Start of Frame 6018
6018,1744588350.2391677,End of Frame 6018
6019,1744588350.2508807,Start Get Vehicle Position (on manual_control.py Side)
6019,1744588350.2508929,End Get Vehicle Position (on manual_control.py Side)
6019,1744588350.2508814,Start Get Vehicle Position (on record.py Side)
6019,1744588350.2508917,End Get Vehicle Position (on record.py Side)
6019,1744588350.2391717,Start of Frame 6019
6019,1744588350.2567236,End of Frame 6019
6020,1744588350.2666733,Start Get Vehicle Position (on manual_control.py Side)
6020,1744588350.2666957,End Get Vehicle Position (on manual_control.py Side)
6020,1744588350.2666752,Start Get Vehicle Position (on record.py Side)
6020,1744588350.2666943,End Get Vehicle Position (on record.py Side)
6018,1744588350.2507834,Start of Saving Image: frame_6018.png
6018,1744588350.268808,End of Saving Image: frame_6018.png
6020,1744588350.2567346,Start of Frame 6020
6020,1744588350.2743754,End of Frame 6020
6020,1744588350.2825296,Start Get Vehicle Position (on manual_control.py Side)
6020,1744588350.2825453,End Get Vehicle Position (on manual_control.py Side)
6020,1744588350.2825308,Start Get Vehicle Position (on record.py Side)
6020,1744588350.2825444,End Get Vehicle Position (on record.py Side)
6019,1744588350.2690628,Start of Saving Image: frame_6019.png
6019,1744588350.2837005,End of Saving Image: frame_6019.png
6020,1744588350.2839215,Start of Saving Image: frame_6020.png
6020,1744588350.2906523,End of Saving Image: frame_6020.png
6020,1744588350.274384,Start of Frame 6020
6020,1744588350.2957282,End of Frame 6020
6021,1744588350.2985036,Start Get Vehicle Position (on manual_control.py Side)
6021,1744588350.2985227,End Get Vehicle Position (on manual_control.py Side)
6021,1744588350.298505,Start Get Vehicle Position (on record.py Side)
6021,1744588350.2985213,End Get Vehicle Position (on record.py Side)
6021,1744588350.2957387,Start of Frame 6021
6021,1744588350.304281,End of Frame 6021
6022,1744588350.3148766,Start Get Vehicle Position (on manual_control.py Side)
6022,1744588350.31489,End Get Vehicle Position (on manual_control.py Side)
6022,1744588350.3148777,Start Get Vehicle Position (on record.py Side)
6022,1744588350.314889,End Get Vehicle Position (on record.py Side)
6022,1744588350.3042915,Start of Frame 6022
6022,1744588350.3220394,End of Frame 6022
6023,1744588350.3305733,Start Get Vehicle Position (on manual_control.py Side)
6023,1744588350.330594,End Get Vehicle Position (on manual_control.py Side)
6023,1744588350.3305745,Start Get Vehicle Position (on record.py Side)
6023,1744588350.3305929,End Get Vehicle Position (on record.py Side)
6021,1744588350.3147826,Start of Saving Image: frame_6021.png
6021,1744588350.3323073,End of Saving Image: frame_6021.png
6023,1744588350.3220503,Start of Frame 6023
6023,1744588350.3370848,End of Frame 6023
6023,1744588350.346588,Start Get Vehicle Position (on manual_control.py Side)
6023,1744588350.3466027,End Get Vehicle Position (on manual_control.py Side)
6023,1744588350.3465889,Start Get Vehicle Position (on record.py Side)
6023,1744588350.3466015,End Get Vehicle Position (on record.py Side)
6022,1744588350.3327353,Start of Saving Image: frame_6022.png
6022,1744588350.3477159,End of Saving Image: frame_6022.png
6023,1744588350.3479314,Start of Saving Image: frame_6023.png
6023,1744588350.3545716,End of Saving Image: frame_6023.png
6023,1744588350.337092,Start of Frame 6023
6023,1744588350.3572176,End of Frame 6023
6024,1744588350.362478,Start Get Vehicle Position (on manual_control.py Side)
6024,1744588350.3624918,End Get Vehicle Position (on manual_control.py Side)
6024,1744588350.3624792,Start Get Vehicle Position (on record.py Side)
6024,1744588350.3624911,End Get Vehicle Position (on record.py Side)
5922,1744588350.1865294,Start of Saving Image: frame_5922.png
5922,1744588350.3676732,End of Saving Image: frame_5922.png
6024,1744588350.3572211,Start of Frame 6024
6024,1744588350.3721669,End of Frame 6024
6025,1744588350.3796709,Start Get Vehicle Position (on manual_control.py Side)
6025,1744588350.37969,End Get Vehicle Position (on manual_control.py Side)
6025,1744588350.3796723,Start Get Vehicle Position (on record.py Side)
6025,1744588350.379689,End Get Vehicle Position (on record.py Side)
6024,1744588350.3661895,Start of Saving Image: frame_6024.png
6024,1744588350.3811927,End of Saving Image: frame_6024.png
6025,1744588350.372174,Start of Frame 6025
6025,1744588350.384695,End of Frame 6025
6026,1744588350.3958678,Start Get Vehicle Position (on manual_control.py Side)
6026,1744588350.3958812,End Get Vehicle Position (on manual_control.py Side)
6026,1744588350.3958688,Start Get Vehicle Position (on record.py Side)
6026,1744588350.3958802,End Get Vehicle Position (on record.py Side)
6026,1744588350.3846998,Start of Frame 6026
6026,1744588350.4009147,End of Frame 6026
6027,1744588350.4115245,Start Get Vehicle Position (on manual_control.py Side)
6027,1744588350.4115489,End Get Vehicle Position (on manual_control.py Side)
6027,1744588350.4115257,Start Get Vehicle Position (on record.py Side)
6027,1744588350.4115477,End Get Vehicle Position (on record.py Side)
6025,1744588350.3957481,Start of Saving Image: frame_6025.png
6025,1744588350.4126627,End of Saving Image: frame_6025.png
6026,1744588350.4129438,Start of Saving Image: frame_6026.png
6026,1744588350.4199831,End of Saving Image: frame_6026.png
6027,1744588350.4009202,Start of Frame 6027
6027,1744588350.4210684,End of Frame 6027
6027,1744588350.427481,Start Get Vehicle Position (on manual_control.py Side)
6027,1744588350.4274955,End Get Vehicle Position (on manual_control.py Side)
6027,1744588350.427482,Start Get Vehicle Position (on record.py Side)
6027,1744588350.4274948,End Get Vehicle Position (on record.py Side)
6027,1744588350.4210732,Start of Frame 6027
6027,1744588350.4324615,End of Frame 6027
6028,1744588350.4435284,Start Get Vehicle Position (on manual_control.py Side)
6028,1744588350.4435441,End Get Vehicle Position (on manual_control.py Side)
6028,1744588350.4435298,Start Get Vehicle Position (on record.py Side)
6028,1744588350.4435427,End Get Vehicle Position (on record.py Side)
6027,1744588350.429703,Start of Saving Image: frame_6027.png
6027,1744588350.4446623,End of Saving Image: frame_6027.png
6028,1744588350.432471,Start of Frame 6028
6028,1744588350.4497364,End of Frame 6028
6029,1744588350.4597654,Start Get Vehicle Position (on manual_control.py Side)
6029,1744588350.4597788,End Get Vehicle Position (on manual_control.py Side)
6029,1744588350.4597664,Start Get Vehicle Position (on record.py Side)
6029,1744588350.4597776,End Get Vehicle Position (on record.py Side)
6029,1744588350.4497428,Start of Frame 6029
6029,1744588350.4660063,End of Frame 6029
6030,1744588350.475592,Start Get Vehicle Position (on manual_control.py Side)
6030,1744588350.475612,End Get Vehicle Position (on manual_control.py Side)
6030,1744588350.4755938,Start Get Vehicle Position (on record.py Side)
6030,1744588350.4756107,End Get Vehicle Position (on record.py Side)
6028,1744588350.4596286,Start of Saving Image: frame_6028.png
6028,1744588350.477521,End of Saving Image: frame_6028.png
6029,1744588350.4777753,Start of Saving Image: frame_6029.png
6029,1744588350.484946,End of Saving Image: frame_6029.png
6030,1744588350.466018,Start of Frame 6030
6030,1744588350.4849896,End of Frame 6030
6030,1744588350.491481,Start Get Vehicle Position (on manual_control.py Side)
6030,1744588350.4914954,End Get Vehicle Position (on manual_control.py Side)
6030,1744588350.4914818,Start Get Vehicle Position (on record.py Side)
6030,1744588350.4914944,End Get Vehicle Position (on record.py Side)
6030,1744588350.4849946,Start of Frame 6030
6030,1744588350.4972441,End of Frame 6030
6031,1744588350.5078435,Start Get Vehicle Position (on manual_control.py Side)
6031,1744588350.5078635,End Get Vehicle Position (on manual_control.py Side)
6031,1744588350.5078452,Start Get Vehicle Position (on record.py Side)
6031,1744588350.5078623,End Get Vehicle Position (on record.py Side)
6031,1744588350.4972537,Start of Frame 6031
6031,1744588350.514628,End of Frame 6031
6032,1744588350.523611,Start Get Vehicle Position (on manual_control.py Side)
6032,1744588350.5236247,End Get Vehicle Position (on manual_control.py Side)
6032,1744588350.5236123,Start Get Vehicle Position (on record.py Side)
6032,1744588350.523624,End Get Vehicle Position (on record.py Side)
6030,1744588350.5077145,Start of Saving Image: frame_6030.png
6030,1744588350.5247114,End of Saving Image: frame_6030.png
6032,1744588350.5146384,Start of Frame 6032
6032,1744588350.529082,End of Frame 6032
6033,1744588350.5395508,Start Get Vehicle Position (on manual_control.py Side)
6033,1744588350.5395656,End Get Vehicle Position (on manual_control.py Side)
6033,1744588350.5395515,Start Get Vehicle Position (on record.py Side)
6033,1744588350.5395625,End Get Vehicle Position (on record.py Side)
6031,1744588350.5249605,Start of Saving Image: frame_6031.png
6031,1744588350.540684,End of Saving Image: frame_6031.png
5923,1744588350.3720558,Start of Saving Image: frame_5923.png
5923,1744588350.5407364,End of Saving Image: frame_5923.png
6033,1744588350.5290916,Start of Frame 6033
6033,1744588350.5510783,End of Frame 6033
6033,1744588350.5554743,Start Get Vehicle Position (on manual_control.py Side)
6033,1744588350.5554872,End Get Vehicle Position (on manual_control.py Side)
6033,1744588350.555475,Start Get Vehicle Position (on record.py Side)
6033,1744588350.5554864,End Get Vehicle Position (on record.py Side)
6032,1744588350.540932,Start of Saving Image: frame_6032.png
6032,1744588350.5569165,End of Saving Image: frame_6032.png
6033,1744588350.5510862,Start of Frame 6033
6033,1744588350.5611446,End of Frame 6033
6034,1744588350.571856,Start Get Vehicle Position (on manual_control.py Side)
6034,1744588350.5718708,End Get Vehicle Position (on manual_control.py Side)
6034,1744588350.5718572,Start Get Vehicle Position (on record.py Side)
6034,1744588350.5718696,End Get Vehicle Position (on record.py Side)
6034,1744588350.561151,Start of Frame 6034
6034,1744588350.5781183,End of Frame 6034
6035,1744588350.5875795,Start Get Vehicle Position (on manual_control.py Side)
6035,1744588350.5875947,End Get Vehicle Position (on manual_control.py Side)
6035,1744588350.5875807,Start Get Vehicle Position (on record.py Side)
6035,1744588350.5875938,End Get Vehicle Position (on record.py Side)
6033,1744588350.571739,Start of Saving Image: frame_6033.png
6033,1744588350.5887697,End of Saving Image: frame_6033.png
6035,1744588350.5781245,Start of Frame 6035
6035,1744588350.5944903,End of Frame 6035
6035,1744588350.6034973,Start Get Vehicle Position (on manual_control.py Side)
6035,1744588350.6035104,End Get Vehicle Position (on manual_control.py Side)
6035,1744588350.6034985,Start Get Vehicle Position (on record.py Side)
6035,1744588350.6035094,End Get Vehicle Position (on record.py Side)
6034,1744588350.5890095,Start of Saving Image: frame_6034.png
6034,1744588350.6046503,End of Saving Image: frame_6034.png
6035,1744588350.607402,Start of Saving Image: frame_6035.png
6035,1744588350.6140666,End of Saving Image: frame_6035.png
6035,1744588350.5944965,Start of Frame 6035
6035,1744588350.6153708,End of Frame 6035
6036,1744588350.619482,Start Get Vehicle Position (on manual_control.py Side)
6036,1744588350.6194968,End Get Vehicle Position (on manual_control.py Side)
6036,1744588350.6194832,Start Get Vehicle Position (on record.py Side)
6036,1744588350.6194954,End Get Vehicle Position (on record.py Side)
6036,1744588350.6153777,Start of Frame 6036
6036,1744588350.6246347,End of Frame 6036
6037,1744588350.6355405,Start Get Vehicle Position (on manual_control.py Side)
6037,1744588350.6355555,End Get Vehicle Position (on manual_control.py Side)
6037,1744588350.6355414,Start Get Vehicle Position (on record.py Side)
6037,1744588350.6355546,End Get Vehicle Position (on record.py Side)
6037,1744588350.6246402,Start of Frame 6037
6037,1744588350.6421185,End of Frame 6037
6038,1744588350.6515663,Start Get Vehicle Position (on manual_control.py Side)
6038,1744588350.6515853,End Get Vehicle Position (on manual_control.py Side)
6038,1744588350.651568,Start Get Vehicle Position (on record.py Side)
6038,1744588350.6515841,End Get Vehicle Position (on record.py Side)
6036,1744588350.6245065,Start of Saving Image: frame_6036.png
6036,1744588350.6537588,End of Saving Image: frame_6036.png
6038,1744588350.6421309,Start of Frame 6038
6038,1744588350.659023,End of Frame 6038
6039,1744588350.6675506,Start Get Vehicle Position (on manual_control.py Side)
6039,1744588350.6675665,End Get Vehicle Position (on manual_control.py Side)
6039,1744588350.6675515,Start Get Vehicle Position (on record.py Side)
6039,1744588350.6675653,End Get Vehicle Position (on record.py Side)
6037,1744588350.6540987,Start of Saving Image: frame_6037.png
6037,1744588350.668726,End of Saving Image: frame_6037.png
6039,1744588350.6590352,Start of Frame 6039
6039,1744588350.673119,End of Frame 6039
6040,1744588350.6835804,Start Get Vehicle Position (on manual_control.py Side)
6040,1744588350.6835957,End Get Vehicle Position (on manual_control.py Side)
6040,1744588350.683582,Start Get Vehicle Position (on record.py Side)
6040,1744588350.6835947,End Get Vehicle Position (on record.py Side)
6038,1744588350.6690254,Start of Saving Image: frame_6038.png
6038,1744588350.6847079,End of Saving Image: frame_6038.png
6040,1744588350.6731277,Start of Frame 6040
6040,1744588350.6908128,End of Frame 6040
6041,1744588350.6996222,Start Get Vehicle Position (on manual_control.py Side)
6041,1744588350.6996408,End Get Vehicle Position (on manual_control.py Side)
6041,1744588350.6996233,Start Get Vehicle Position (on record.py Side)
6041,1744588350.6996396,End Get Vehicle Position (on record.py Side)
6039,1744588350.6850195,Start of Saving Image: frame_6039.png
6039,1744588350.701553,End of Saving Image: frame_6039.png
6041,1744588350.6908257,Start of Frame 6041
6041,1744588350.7088432,End of Frame 6041
6041,1744588350.7155354,Start Get Vehicle Position (on manual_control.py Side)
6041,1744588350.7155554,End Get Vehicle Position (on manual_control.py Side)
6041,1744588350.7155368,Start Get Vehicle Position (on record.py Side)
6041,1744588350.7155542,End Get Vehicle Position (on record.py Side)
6040,1744588350.7035015,Start of Saving Image: frame_6040.png
6040,1744588350.7176154,End of Saving Image: frame_6040.png
6041,1744588350.71785,Start of Saving Image: frame_6041.png
6041,1744588350.724215,End of Saving Image: frame_6041.png
5924,1744588350.5483305,Start of Saving Image: frame_5924.png
5924,1744588350.7249649,End of Saving Image: frame_5924.png
6041,1744588350.7088537,Start of Frame 6041
6041,1744588350.7292082,End of Frame 6041
6042,1744588350.7314675,Start Get Vehicle Position (on manual_control.py Side)
6042,1744588350.7314806,End Get Vehicle Position (on manual_control.py Side)
6042,1744588350.7314682,Start Get Vehicle Position (on record.py Side)
6042,1744588350.73148,End Get Vehicle Position (on record.py Side)
6042,1744588350.7292137,Start of Frame 6042
6042,1744588350.7361076,End of Frame 6042
6043,1744588350.747793,Start Get Vehicle Position (on manual_control.py Side)
6043,1744588350.7478037,End Get Vehicle Position (on manual_control.py Side)
6043,1744588350.7477937,Start Get Vehicle Position (on record.py Side)
6043,1744588350.7478027,End Get Vehicle Position (on record.py Side)
6043,1744588350.736114,Start of Frame 6043
6043,1744588350.7529051,End of Frame 6043
6044,1744588350.7636476,Start Get Vehicle Position (on manual_control.py Side)
6044,1744588350.763667,End Get Vehicle Position (on manual_control.py Side)
6044,1744588350.7636487,Start Get Vehicle Position (on record.py Side)
6044,1744588350.7636662,End Get Vehicle Position (on record.py Side)
6042,1744588350.7477143,Start of Saving Image: frame_6042.png
6042,1744588350.7649133,End of Saving Image: frame_6042.png
6043,1744588350.7651641,Start of Saving Image: frame_6043.png
6043,1744588350.7720869,End of Saving Image: frame_6043.png
6044,1744588350.7529142,Start of Frame 6044
6044,1744588350.7721856,End of Frame 6044
6045,1744588350.779471,Start Get Vehicle Position (on manual_control.py Side)
6045,1744588350.7794847,End Get Vehicle Position (on manual_control.py Side)
6045,1744588350.779472,Start Get Vehicle Position (on record.py Side)
6045,1744588350.7794833,End Get Vehicle Position (on record.py Side)
6044,1744588350.7810166,Start of Saving Image: frame_6044.png
6044,1744588350.7882578,End of Saving Image: frame_6044.png
6045,1744588350.772193,Start of Frame 6045
6045,1744588350.7907665,End of Frame 6045
6045,1744588350.7954967,Start Get Vehicle Position (on manual_control.py Side)
6045,1744588350.7955155,End Get Vehicle Position (on manual_control.py Side)
6045,1744588350.795498,Start Get Vehicle Position (on record.py Side)
6045,1744588350.7955146,End Get Vehicle Position (on record.py Side)
6045,1744588350.7989867,Start of Saving Image: frame_6045.png
6045,1744588350.805916,End of Saving Image: frame_6045.png
6045,1744588350.7907743,Start of Frame 6045
6045,1744588350.8070233,End of Frame 6045
6046,1744588350.8114865,Start Get Vehicle Position (on manual_control.py Side)
6046,1744588350.8115022,End Get Vehicle Position (on manual_control.py Side)
6046,1744588350.8114872,Start Get Vehicle Position (on record.py Side)
6046,1744588350.8115008,End Get Vehicle Position (on record.py Side)
6046,1744588350.807029,Start of Frame 6046
6046,1744588350.817025,End of Frame 6046
6047,1744588350.827911,Start Get Vehicle Position (on manual_control.py Side)
6047,1744588350.8279316,End Get Vehicle Position (on manual_control.py Side)
6047,1744588350.827912,Start Get Vehicle Position (on record.py Side)
6047,1744588350.8279305,End Get Vehicle Position (on record.py Side)
6047,1744588350.8170369,Start of Frame 6047
6047,1744588350.8363285,End of Frame 6047
6048,1744588350.8435411,Start Get Vehicle Position (on manual_control.py Side)
6048,1744588350.843556,End Get Vehicle Position (on manual_control.py Side)
6048,1744588350.8435423,Start Get Vehicle Position (on record.py Side)
6048,1744588350.8435547,End Get Vehicle Position (on record.py Side)
6046,1744588350.8277388,Start of Saving Image: frame_6046.png
6046,1744588350.8446124,End of Saving Image: frame_6046.png
6048,1744588350.8363376,Start of Frame 6048
6048,1744588350.8482115,End of Frame 6048
6049,1744588350.8595858,Start Get Vehicle Position (on manual_control.py Side)
6049,1744588350.8596,End Get Vehicle Position (on manual_control.py Side)
6049,1744588350.8595867,Start Get Vehicle Position (on record.py Side)
6049,1744588350.859599,End Get Vehicle Position (on record.py Side)
6047,1744588350.844904,Start of Saving Image: frame_6047.png
6047,1744588350.8607805,End of Saving Image: frame_6047.png
5925,1744588350.7290897,Start of Saving Image: frame_5925.png
5925,1744588350.8615482,End of Saving Image: frame_5925.png
6049,1744588350.8482184,Start of Frame 6049
6049,1744588350.868259,End of Frame 6049
6049,1744588350.875563,Start Get Vehicle Position (on manual_control.py Side)
6049,1744588350.8755794,End Get Vehicle Position (on manual_control.py Side)
6049,1744588350.875564,Start Get Vehicle Position (on record.py Side)
6049,1744588350.8755786,End Get Vehicle Position (on record.py Side)
6048,1744588350.8610785,Start of Saving Image: frame_6048.png
6048,1744588350.8833401,End of Saving Image: frame_6048.png
6049,1744588350.8682733,Start of Frame 6049
6049,1744588350.8892763,End of Frame 6049
6050,1744588350.8914802,Start Get Vehicle Position (on manual_control.py Side)
6050,1744588350.8914957,End Get Vehicle Position (on manual_control.py Side)
6050,1744588350.8914814,Start Get Vehicle Position (on record.py Side)
6050,1744588350.8914948,End Get Vehicle Position (on record.py Side)
6049,1744588350.8836048,Start of Saving Image: frame_6049.png
6049,1744588350.8926687,End of Saving Image: frame_6049.png
6050,1744588350.8892825,Start of Frame 6050
6050,1744588350.8979852,End of Frame 6050
6051,1744588350.9078572,Start Get Vehicle Position (on manual_control.py Side)
6051,1744588350.9078703,End Get Vehicle Position (on manual_control.py Side)
6051,1744588350.9078581,Start Get Vehicle Position (on record.py Side)
6051,1744588350.9078689,End Get Vehicle Position (on record.py Side)
6051,1744588350.8979955,Start of Frame 6051
6051,1744588350.9135962,End of Frame 6051
6052,1744588350.9235234,Start Get Vehicle Position (on manual_control.py Side)
6052,1744588350.923541,End Get Vehicle Position (on manual_control.py Side)
6052,1744588350.9235244,Start Get Vehicle Position (on record.py Side)
6052,1744588350.9235375,End Get Vehicle Position (on record.py Side)
6050,1744588350.9077523,Start of Saving Image: frame_6050.png
6050,1744588350.924696,End of Saving Image: frame_6050.png
6052,1744588350.9136066,Start of Frame 6052
6052,1744588350.9302793,End of Frame 6052
6053,1744588350.9395905,Start Get Vehicle Position (on manual_control.py Side)
6053,1744588350.9396043,End Get Vehicle Position (on manual_control.py Side)
6053,1744588350.9395912,Start Get Vehicle Position (on record.py Side)
6053,1744588350.9396029,End Get Vehicle Position (on record.py Side)
6051,1744588350.9249487,Start of Saving Image: frame_6051.png
6051,1744588350.9407682,End of Saving Image: frame_6051.png
6053,1744588350.9302876,Start of Frame 6053
6053,1744588350.9448726,End of Frame 6053
6054,1744588350.9555535,Start Get Vehicle Position (on manual_control.py Side)
6054,1744588350.9555666,End Get Vehicle Position (on manual_control.py Side)
6054,1744588350.9555545,Start Get Vehicle Position (on record.py Side)
6054,1744588350.9555655,End Get Vehicle Position (on record.py Side)
6052,1744588350.9410803,Start of Saving Image: frame_6052.png
6052,1744588350.9567018,End of Saving Image: frame_6052.png
6054,1744588350.9448826,Start of Frame 6054
6054,1744588350.9642692,End of Frame 6054
6054,1744588350.9705033,Start Get Vehicle Position (on manual_control.py Side)
6054,1744588350.9705234,End Get Vehicle Position (on manual_control.py Side)
6054,1744588350.970505,Start Get Vehicle Position (on record.py Side)
6054,1744588350.9705222,End Get Vehicle Position (on record.py Side)
6053,1744588350.957032,Start of Saving Image: frame_6053.png
6053,1744588350.9727542,End of Saving Image: frame_6053.png
6054,1744588350.973166,Start of Saving Image: frame_6054.png
6054,1744588350.980401,End of Saving Image: frame_6054.png
6054,1744588350.9642801,Start of Frame 6054
6054,1744588350.983803,End of Frame 6054
6055,1744588350.9864738,Start Get Vehicle Position (on manual_control.py Side)
6055,1744588350.9864879,End Get Vehicle Position (on manual_control.py Side)
6055,1744588350.986475,Start Get Vehicle Position (on record.py Side)
6055,1744588350.9864872,End Get Vehicle Position (on record.py Side)
6055,1744588350.98381,Start of Frame 6055
6055,1744588350.9918382,End of Frame 6055
6056,1744588351.002873,Start Get Vehicle Position (on manual_control.py Side)
6056,1744588351.0028872,End Get Vehicle Position (on manual_control.py Side)
6056,1744588351.002874,Start Get Vehicle Position (on record.py Side)
6056,1744588351.0028858,End Get Vehicle Position (on record.py Side)
5926,1744588350.875427,Start of Saving Image: frame_5926.png
5926,1744588351.0042148,End of Saving Image: frame_5926.png
6056,1744588350.9918468,Start of Frame 6056
6056,1744588351.0097644,End of Frame 6056
6057,1744588351.0187097,Start Get Vehicle Position (on manual_control.py Side)
6057,1744588351.0187228,End Get Vehicle Position (on manual_control.py Side)
6057,1744588351.0187106,Start Get Vehicle Position (on record.py Side)
6057,1744588351.0187218,End Get Vehicle Position (on record.py Side)
6057,1744588351.009775,Start of Frame 6057
6057,1744588351.0234892,End of Frame 6057
6058,1744588351.0345583,Start Get Vehicle Position (on manual_control.py Side)
6058,1744588351.0345721,End Get Vehicle Position (on manual_control.py Side)
6058,1744588351.0345592,Start Get Vehicle Position (on record.py Side)
6058,1744588351.0345712,End Get Vehicle Position (on record.py Side)
6055,1744588351.0027761,Start of Saving Image: frame_6055.png
6055,1744588351.0356278,End of Saving Image: frame_6055.png
6058,1744588351.0234957,Start of Frame 6058
6058,1744588351.040566,End of Frame 6058
6059,1744588351.0505843,Start Get Vehicle Position (on manual_control.py Side)
6059,1744588351.0506005,End Get Vehicle Position (on manual_control.py Side)
6059,1744588351.0505855,Start Get Vehicle Position (on record.py Side)
6059,1744588351.0505989,End Get Vehicle Position (on record.py Side)
6056,1744588351.035894,Start of Saving Image: frame_6056.png
6056,1744588351.0517285,End of Saving Image: frame_6056.png
6059,1744588351.0405772,Start of Frame 6059
6059,1744588351.057448,End of Frame 6059
6060,1744588351.0665526,Start Get Vehicle Position (on manual_control.py Side)
6060,1744588351.0665672,End Get Vehicle Position (on manual_control.py Side)
6060,1744588351.0665536,Start Get Vehicle Position (on record.py Side)
6060,1744588351.0665662,End Get Vehicle Position (on record.py Side)
6057,1744588351.0520222,Start of Saving Image: frame_6057.png
6057,1744588351.0677316,End of Saving Image: frame_6057.png
6058,1744588351.067989,Start of Saving Image: frame_6058.png
6058,1744588351.074786,End of Saving Image: frame_6058.png
6060,1744588351.057456,Start of Frame 6060
6060,1744588351.0758398,End of Frame 6060
6060,1744588351.0824788,Start Get Vehicle Position (on manual_control.py Side)
6060,1744588351.082493,End Get Vehicle Position (on manual_control.py Side)
6060,1744588351.08248,Start Get Vehicle Position (on record.py Side)
6060,1744588351.0824924,End Get Vehicle Position (on record.py Side)
6059,1744588351.075035,Start of Saving Image: frame_6059.png
6059,1744588351.083764,End of Saving Image: frame_6059.png
6060,1744588351.0848074,Start of Saving Image: frame_6060.png
6060,1744588351.0919578,End of Saving Image: frame_6060.png
6060,1744588351.0758455,Start of Frame 6060
6060,1744588351.094357,End of Frame 6060
6061,1744588351.098479,Start Get Vehicle Position (on manual_control.py Side)
6061,1744588351.0984938,End Get Vehicle Position (on manual_control.py Side)
6061,1744588351.0984802,Start Get Vehicle Position (on record.py Side)
6061,1744588351.0984926,End Get Vehicle Position (on record.py Side)
6061,1744588351.094361,Start of Frame 6061
6061,1744588351.1042297,End of Frame 6061
6062,1744588351.114884,Start Get Vehicle Position (on manual_control.py Side)
6062,1744588351.114896,End Get Vehicle Position (on manual_control.py Side)
6062,1744588351.1148849,Start Get Vehicle Position (on record.py Side)
6062,1744588351.1148953,End Get Vehicle Position (on record.py Side)
6062,1744588351.1042368,Start of Frame 6062
6062,1744588351.119647,End of Frame 6062
6061,1744588351.114799,Start of Saving Image: frame_6061.png
6061,1744588351.130756,End of Saving Image: frame_6061.png
6063,1744588351.131464,Start Get Vehicle Position (on manual_control.py Side)
6063,1744588351.131483,End Get Vehicle Position (on manual_control.py Side)
6063,1744588351.1314654,Start Get Vehicle Position (on record.py Side)
6063,1744588351.131482,End Get Vehicle Position (on record.py Side)
5927,1744588351.0186155,Start of Saving Image: frame_5927.png
5927,1744588351.1365404,End of Saving Image: frame_5927.png
6063,1744588351.1196575,Start of Frame 6063
6063,1744588351.1413279,End of Frame 6063
6063,1744588351.1465416,Start Get Vehicle Position (on manual_control.py Side)
6063,1744588351.146563,End Get Vehicle Position (on manual_control.py Side)
6063,1744588351.146543,Start Get Vehicle Position (on record.py Side)
6063,1744588351.1465619,End Get Vehicle Position (on record.py Side)
6062,1744588351.1310165,Start of Saving Image: frame_6062.png
6062,1744588351.148629,End of Saving Image: frame_6062.png
6063,1744588351.14893,Start of Saving Image: frame_6063.png
6063,1744588351.1557646,End of Saving Image: frame_6063.png
6063,1744588351.1413362,Start of Frame 6063
6063,1744588351.158443,End of Frame 6063
6064,1744588351.1624765,Start Get Vehicle Position (on manual_control.py Side)
6064,1744588351.1624918,End Get Vehicle Position (on manual_control.py Side)
6064,1744588351.1624775,Start Get Vehicle Position (on record.py Side)
6064,1744588351.1624908,End Get Vehicle Position (on record.py Side)
6064,1744588351.1584466,Start of Frame 6064
6064,1744588351.1688688,End of Frame 6064
6065,1744588351.1784956,Start Get Vehicle Position (on manual_control.py Side)
6065,1744588351.1785145,End Get Vehicle Position (on manual_control.py Side)
6065,1744588351.178497,Start Get Vehicle Position (on record.py Side)
6065,1744588351.1785135,End Get Vehicle Position (on record.py Side)
6065,1744588351.168877,Start of Frame 6065
6065,1744588351.1867118,End of Frame 6065
6066,1744588351.194617,Start Get Vehicle Position (on manual_control.py Side)
6066,1744588351.194631,End Get Vehicle Position (on manual_control.py Side)
6066,1744588351.1946182,Start Get Vehicle Position (on record.py Side)
6066,1744588351.1946297,End Get Vehicle Position (on record.py Side)
6064,1744588351.168676,Start of Saving Image: frame_6064.png
6064,1744588351.1957166,End of Saving Image: frame_6064.png
6066,1744588351.1867254,Start of Frame 6066
6066,1744588351.2001195,End of Frame 6066
6067,1744588351.2106366,Start Get Vehicle Position (on manual_control.py Side)
6067,1744588351.2106647,End Get Vehicle Position (on manual_control.py Side)
6067,1744588351.2106383,Start Get Vehicle Position (on record.py Side)
6067,1744588351.210663,End Get Vehicle Position (on record.py Side)
6065,1744588351.1959913,Start of Saving Image: frame_6065.png
6065,1744588351.212761,End of Saving Image: frame_6065.png
6066,1744588351.213005,Start of Saving Image: frame_6066.png
6066,1744588351.2198973,End of Saving Image: frame_6066.png
6067,1744588351.2001295,Start of Frame 6067
6067,1744588351.2226827,End of Frame 6067
6067,1744588351.2264771,Start Get Vehicle Position (on manual_control.py Side)
6067,1744588351.2264917,End Get Vehicle Position (on manual_control.py Side)
6067,1744588351.226478,Start Get Vehicle Position (on record.py Side)
6067,1744588351.2264907,End Get Vehicle Position (on record.py Side)
6067,1744588351.2226887,Start of Frame 6067
6067,1744588351.2322867,End of Frame 6067
6068,1744588351.2428255,Start Get Vehicle Position (on manual_control.py Side)
6068,1744588351.2428386,End Get Vehicle Position (on manual_control.py Side)
6068,1744588351.2428262,Start Get Vehicle Position (on record.py Side)
6068,1744588351.2428377,End Get Vehicle Position (on record.py Side)
5928,1744588351.1411555,Start of Saving Image: frame_5928.png
5928,1744588351.24601,End of Saving Image: frame_5928.png
6068,1744588351.2322931,Start of Frame 6068
6068,1744588351.250704,End of Frame 6068
6069,1744588351.2585979,Start Get Vehicle Position (on manual_control.py Side)
6069,1744588351.2586112,End Get Vehicle Position (on manual_control.py Side)
6069,1744588351.2585988,Start Get Vehicle Position (on record.py Side)
6069,1744588351.25861,End Get Vehicle Position (on record.py Side)
6067,1744588351.2427251,Start of Saving Image: frame_6067.png
6067,1744588351.2597961,End of Saving Image: frame_6067.png
6069,1744588351.2507136,Start of Frame 6069
6069,1744588351.2646928,End of Frame 6069
6070,1744588351.274497,Start Get Vehicle Position (on manual_control.py Side)
6070,1744588351.2745166,End Get Vehicle Position (on manual_control.py Side)
6070,1744588351.2744985,Start Get Vehicle Position (on record.py Side)
6070,1744588351.2745152,End Get Vehicle Position (on record.py Side)
6068,1744588351.260163,Start of Saving Image: frame_6068.png
6068,1744588351.2757852,End of Saving Image: frame_6068.png
6070,1744588351.2647038,Start of Frame 6070
6070,1744588351.284921,End of Frame 6070
6070,1744588351.2904775,Start Get Vehicle Position (on manual_control.py Side)
6070,1744588351.2904918,End Get Vehicle Position (on manual_control.py Side)
6070,1744588351.2904787,Start Get Vehicle Position (on record.py Side)
6070,1744588351.2904906,End Get Vehicle Position (on record.py Side)
6069,1744588351.276098,Start of Saving Image: frame_6069.png
6069,1744588351.2917252,End of Saving Image: frame_6069.png
6070,1744588351.2849324,Start of Frame 6070
6070,1744588351.2958457,End of Frame 6070
6071,1744588351.3069105,Start Get Vehicle Position (on manual_control.py Side)
6071,1744588351.3069293,End Get Vehicle Position (on manual_control.py Side)
6071,1744588351.3069117,Start Get Vehicle Position (on record.py Side)
6071,1744588351.3069284,End Get Vehicle Position (on record.py Side)
6071,1744588351.295899,Start of Frame 6071
6071,1744588351.3154566,End of Frame 6071
6072,1744588351.3226244,Start Get Vehicle Position (on manual_control.py Side)
6072,1744588351.3226435,End Get Vehicle Position (on manual_control.py Side)
6072,1744588351.322626,Start Get Vehicle Position (on record.py Side)
6072,1744588351.322642,End Get Vehicle Position (on record.py Side)
6070,1744588351.30673,Start of Saving Image: frame_6070.png
6070,1744588351.3247945,End of Saving Image: frame_6070.png
6072,1744588351.315468,Start of Frame 6072
6072,1744588351.3294528,End of Frame 6072
6073,1744588351.3385985,Start Get Vehicle Position (on manual_control.py Side)
6073,1744588351.338618,End Get Vehicle Position (on manual_control.py Side)
6073,1744588351.3386,Start Get Vehicle Position (on record.py Side)
6073,1744588351.3386168,End Get Vehicle Position (on record.py Side)
6071,1744588351.3250506,Start of Saving Image: frame_6071.png
6071,1744588351.3397524,End of Saving Image: frame_6071.png
6072,1744588351.3400176,Start of Saving Image: frame_6072.png
6072,1744588351.3469265,End of Saving Image: frame_6072.png
6073,1744588351.329461,Start of Frame 6073
6073,1744588351.3491797,End of Frame 6073
6073,1744588351.354481,Start Get Vehicle Position (on manual_control.py Side)
6073,1744588351.3544965,End Get Vehicle Position (on manual_control.py Side)
6073,1744588351.354482,Start Get Vehicle Position (on record.py Side)
6073,1744588351.3544955,End Get Vehicle Position (on record.py Side)
5929,1744588351.2505474,Start of Saving Image: frame_5929.png
5929,1744588351.357252,End of Saving Image: frame_5929.png
6073,1744588351.3491852,Start of Frame 6073
6073,1744588351.3687558,End of Frame 6073
6074,1744588351.370496,Start Get Vehicle Position (on manual_control.py Side)
6074,1744588351.3705163,End Get Vehicle Position (on manual_control.py Side)
6074,1744588351.3704972,Start Get Vehicle Position (on record.py Side)
6074,1744588351.3705125,End Get Vehicle Position (on record.py Side)
6073,1744588351.3660498,Start of Saving Image: frame_6073.png
6073,1744588351.3741689,End of Saving Image: frame_6073.png
6074,1744588351.3687656,Start of Frame 6074
6074,1744588351.3752873,End of Frame 6074
6075,1744588351.387776,Start Get Vehicle Position (on manual_control.py Side)
6075,1744588351.3877938,End Get Vehicle Position (on manual_control.py Side)
6075,1744588351.3877773,Start Get Vehicle Position (on record.py Side)
6075,1744588351.387792,End Get Vehicle Position (on record.py Side)
6075,1744588351.3752916,Start of Frame 6075
6075,1744588351.39458,End of Frame 6075
6076,1744588351.4036384,Start Get Vehicle Position (on manual_control.py Side)
6076,1744588351.403665,End Get Vehicle Position (on manual_control.py Side)
6076,1744588351.4036398,Start Get Vehicle Position (on record.py Side)
6076,1744588351.4036634,End Get Vehicle Position (on record.py Side)
6074,1744588351.3876514,Start of Saving Image: frame_6074.png
6074,1744588351.4054499,End of Saving Image: frame_6074.png
6076,1744588351.3945913,Start of Frame 6076
6076,1744588351.410968,End of Frame 6076
6077,1744588351.4195483,Start Get Vehicle Position (on manual_control.py Side)
6077,1744588351.4195638,End Get Vehicle Position (on manual_control.py Side)
6077,1744588351.4195492,Start Get Vehicle Position (on record.py Side)
6077,1744588351.4195626,End Get Vehicle Position (on record.py Side)
6075,1744588351.4057918,Start of Saving Image: frame_6075.png
6075,1744588351.4209373,End of Saving Image: frame_6075.png
6077,1744588351.4109795,Start of Frame 6077
6077,1744588351.4279096,End of Frame 6077
6078,1744588351.435498,Start Get Vehicle Position (on manual_control.py Side)
6078,1744588351.4355183,End Get Vehicle Position (on manual_control.py Side)
6078,1744588351.4354997,Start Get Vehicle Position (on record.py Side)
6078,1744588351.4355168,End Get Vehicle Position (on record.py Side)
6076,1744588351.421238,Start of Saving Image: frame_6076.png
6076,1744588351.43748,End of Saving Image: frame_6076.png
6077,1744588351.4377732,Start of Saving Image: frame_6077.png
6077,1744588351.4456747,End of Saving Image: frame_6077.png
6078,1744588351.42792,Start of Frame 6078
6078,1744588351.4468064,End of Frame 6078
6078,1744588351.4514947,Start Get Vehicle Position (on manual_control.py Side)
6078,1744588351.4515145,End Get Vehicle Position (on manual_control.py Side)
6078,1744588351.451496,Start Get Vehicle Position (on record.py Side)
6078,1744588351.4515133,End Get Vehicle Position (on record.py Side)
6078,1744588351.4540827,Start of Saving Image: frame_6078.png
6078,1744588351.4607222,End of Saving Image: frame_6078.png
6078,1744588351.446824,Start of Frame 6078
6078,1744588351.4638574,End of Frame 6078
6079,1744588351.4676063,Start Get Vehicle Position (on manual_control.py Side)
6079,1744588351.4676254,End Get Vehicle Position (on manual_control.py Side)
6079,1744588351.4676075,Start Get Vehicle Position (on record.py Side)
6079,1744588351.4676244,End Get Vehicle Position (on record.py Side)
5930,1744588351.366685,Start of Saving Image: frame_5930.png
5930,1744588351.4694579,End of Saving Image: frame_5930.png
6079,1744588351.463864,Start of Frame 6079
6079,1744588351.4743118,End of Frame 6079
6080,1744588351.4834864,Start Get Vehicle Position (on manual_control.py Side)
6080,1744588351.483499,End Get Vehicle Position (on manual_control.py Side)
6080,1744588351.4834878,Start Get Vehicle Position (on record.py Side)
6080,1744588351.4834983,End Get Vehicle Position (on record.py Side)
6080,1744588351.4743192,Start of Frame 6080
6080,1744588351.4893403,End of Frame 6080
6081,1744588351.4996202,Start Get Vehicle Position (on manual_control.py Side)
6081,1744588351.4996395,End Get Vehicle Position (on manual_control.py Side)
6081,1744588351.4996216,Start Get Vehicle Position (on record.py Side)
6081,1744588351.4996378,End Get Vehicle Position (on record.py Side)
6079,1744588351.4837935,Start of Saving Image: frame_6079.png
6079,1744588351.499749,End of Saving Image: frame_6079.png
6080,1744588351.502087,Start of Saving Image: frame_6080.png
6080,1744588351.5088763,End of Saving Image: frame_6080.png
6081,1744588351.489352,Start of Frame 6081
6081,1744588351.5090337,End of Frame 6081
6082,1744588351.5154872,Start Get Vehicle Position (on manual_control.py Side)
6082,1744588351.5155013,End Get Vehicle Position (on manual_control.py Side)
6082,1744588351.5154886,Start Get Vehicle Position (on record.py Side)
6082,1744588351.5155003,End Get Vehicle Position (on record.py Side)
6081,1744588351.5157287,Start of Saving Image: frame_6081.png
6081,1744588351.5236294,End of Saving Image: frame_6081.png
6082,1744588351.5090387,Start of Frame 6082
6082,1744588351.5246716,End of Frame 6082
6082,1744588351.531491,Start Get Vehicle Position (on manual_control.py Side)
6082,1744588351.5315049,End Get Vehicle Position (on manual_control.py Side)
6082,1744588351.531492,Start Get Vehicle Position (on record.py Side)
6082,1744588351.531504,End Get Vehicle Position (on record.py Side)
6082,1744588351.5334902,Start of Saving Image: frame_6082.png
6082,1744588351.5407004,End of Saving Image: frame_6082.png
6082,1744588351.5246758,Start of Frame 6082
6082,1744588351.544972,End of Frame 6082
6083,1744588351.5474818,Start Get Vehicle Position (on manual_control.py Side)
6083,1744588351.5474956,End Get Vehicle Position (on manual_control.py Side)
6083,1744588351.547483,Start Get Vehicle Position (on record.py Side)
6083,1744588351.5474946,End Get Vehicle Position (on record.py Side)
6083,1744588351.5449803,Start of Frame 6083
6083,1744588351.5525055,End of Frame 6083
6084,1744588351.5642715,Start Get Vehicle Position (on manual_control.py Side)
6084,1744588351.5642862,End Get Vehicle Position (on manual_control.py Side)
6084,1744588351.5642724,Start Get Vehicle Position (on record.py Side)
6084,1744588351.5642853,End Get Vehicle Position (on record.py Side)
6084,1744588351.5525122,Start of Frame 6084
6084,1744588351.5702417,End of Frame 6084
6085,1744588351.5796099,Start Get Vehicle Position (on manual_control.py Side)
6085,1744588351.5796247,End Get Vehicle Position (on manual_control.py Side)
6085,1744588351.579611,Start Get Vehicle Position (on record.py Side)
6085,1744588351.5796235,End Get Vehicle Position (on record.py Side)
6083,1744588351.563701,Start of Saving Image: frame_6083.png
6083,1744588351.58077,End of Saving Image: frame_6083.png
5931,1744588351.4740958,Start of Saving Image: frame_5931.png
5931,1744588351.5822508,End of Saving Image: frame_5931.png
6084,1744588351.5810125,Start of Saving Image: frame_6084.png
6084,1744588351.5880811,End of Saving Image: frame_6084.png
6085,1744588351.570253,Start of Frame 6085
6085,1744588351.5888376,End of Frame 6085
6085,1744588351.5955386,Start Get Vehicle Position (on manual_control.py Side)
6085,1744588351.5955553,End Get Vehicle Position (on manual_control.py Side)
6085,1744588351.59554,Start Get Vehicle Position (on record.py Side)
6085,1744588351.595554,End Get Vehicle Position (on record.py Side)
6085,1744588351.5888424,Start of Frame 6085
6085,1744588351.601082,End of Frame 6085
6086,1744588351.6114771,Start Get Vehicle Position (on manual_control.py Side)
6086,1744588351.611491,End Get Vehicle Position (on manual_control.py Side)
6086,1744588351.6114786,Start Get Vehicle Position (on record.py Side)
6086,1744588351.61149,End Get Vehicle Position (on record.py Side)
6085,1744588351.5981004,Start of Saving Image: frame_6085.png
6085,1744588351.6128883,End of Saving Image: frame_6085.png
6086,1744588351.601092,Start of Frame 6086
6086,1744588351.6172059,End of Frame 6086
6087,1744588351.6280372,Start Get Vehicle Position (on manual_control.py Side)
6087,1744588351.6280525,End Get Vehicle Position (on manual_control.py Side)
6087,1744588351.6280386,Start Get Vehicle Position (on record.py Side)
6087,1744588351.6280515,End Get Vehicle Position (on record.py Side)
6087,1744588351.6172173,Start of Frame 6087
6087,1744588351.6348462,End of Frame 6087
6088,1744588351.6436388,Start Get Vehicle Position (on manual_control.py Side)
6088,1744588351.643665,End Get Vehicle Position (on manual_control.py Side)
6088,1744588351.6436403,Start Get Vehicle Position (on record.py Side)
6088,1744588351.643664,End Get Vehicle Position (on record.py Side)
6086,1744588351.627735,Start of Saving Image: frame_6086.png
6086,1744588351.6457534,End of Saving Image: frame_6086.png
6088,1744588351.634857,Start of Frame 6088
6088,1744588351.6525335,End of Frame 6088
6089,1744588351.6596684,Start Get Vehicle Position (on manual_control.py Side)
6089,1744588351.6596916,End Get Vehicle Position (on manual_control.py Side)
6089,1744588351.659671,Start Get Vehicle Position (on record.py Side)
6089,1744588351.6596901,End Get Vehicle Position (on record.py Side)
6087,1744588351.6460278,Start of Saving Image: frame_6087.png
6087,1744588351.6621308,End of Saving Image: frame_6087.png
6089,1744588351.6525474,Start of Frame 6089
6089,1744588351.667618,End of Frame 6089
6089,1744588351.675534,Start Get Vehicle Position (on manual_control.py Side)
6089,1744588351.675555,End Get Vehicle Position (on manual_control.py Side)
6089,1744588351.6755357,Start Get Vehicle Position (on record.py Side)
6089,1744588351.675554,End Get Vehicle Position (on record.py Side)
6088,1744588351.6623867,Start of Saving Image: frame_6088.png
6088,1744588351.67773,End of Saving Image: frame_6088.png
6089,1744588351.6676311,Start of Frame 6089
6089,1744588351.687822,End of Frame 6089
6090,1744588351.691483,Start Get Vehicle Position (on manual_control.py Side)
6090,1744588351.6914985,End Get Vehicle Position (on manual_control.py Side)
6090,1744588351.6914845,Start Get Vehicle Position (on record.py Side)
6090,1744588351.6914976,End Get Vehicle Position (on record.py Side)
6089,1744588351.678043,Start of Saving Image: frame_6089.png
6089,1744588351.6926868,End of Saving Image: frame_6089.png
5932,1744588351.5876062,Start of Saving Image: frame_5932.png
5932,1744588351.694243,End of Saving Image: frame_5932.png
6090,1744588351.6878335,Start of Frame 6090
6090,1744588351.7029343,End of Frame 6090
6091,1744588351.707504,Start Get Vehicle Position (on manual_control.py Side)
6091,1744588351.707523,End Get Vehicle Position (on manual_control.py Side)
6091,1744588351.707506,Start Get Vehicle Position (on record.py Side)
6091,1744588351.7075214,End Get Vehicle Position (on record.py Side)
6091,1744588351.7029505,Start of Frame 6091
6091,1744588351.7166033,End of Frame 6091
6092,1744588351.7235863,Start Get Vehicle Position (on manual_control.py Side)
6092,1744588351.7236052,End Get Vehicle Position (on manual_control.py Side)
6092,1744588351.7235878,Start Get Vehicle Position (on record.py Side)
6092,1744588351.7236042,End Get Vehicle Position (on record.py Side)
6090,1744588351.7084498,Start of Saving Image: frame_6090.png
6090,1744588351.725527,End of Saving Image: frame_6090.png
6092,1744588351.716615,Start of Frame 6092
6092,1744588351.7327683,End of Frame 6092
6093,1744588351.7395146,Start Get Vehicle Position (on manual_control.py Side)
6093,1744588351.739528,End Get Vehicle Position (on manual_control.py Side)
6093,1744588351.739516,Start Get Vehicle Position (on record.py Side)
6093,1744588351.739527,End Get Vehicle Position (on record.py Side)
6091,1744588351.7257917,Start of Saving Image: frame_6091.png
6091,1744588351.7407255,End of Saving Image: frame_6091.png
6093,1744588351.7327795,Start of Frame 6093
6093,1744588351.7483757,End of Frame 6093
6093,1744588351.755595,Start Get Vehicle Position (on manual_control.py Side)
6093,1744588351.7556167,End Get Vehicle Position (on manual_control.py Side)
6093,1744588351.7555969,Start Get Vehicle Position (on record.py Side)
6093,1744588351.7556155,End Get Vehicle Position (on record.py Side)
6092,1744588351.7410605,Start of Saving Image: frame_6092.png
6092,1744588351.7573185,End of Saving Image: frame_6092.png
6093,1744588351.7576373,Start of Saving Image: frame_6093.png
6093,1744588351.7648563,End of Saving Image: frame_6093.png
6093,1744588351.7483852,Start of Frame 6093
6093,1744588351.7663722,End of Frame 6093
6094,1744588351.7714746,Start Get Vehicle Position (on manual_control.py Side)
6094,1744588351.7714894,End Get Vehicle Position (on manual_control.py Side)
6094,1744588351.7714758,Start Get Vehicle Position (on record.py Side)
6094,1744588351.7714884,End Get Vehicle Position (on record.py Side)
6094,1744588351.766379,Start of Frame 6094
6094,1744588351.7762783,End of Frame 6094
6095,1744588351.7874753,Start Get Vehicle Position (on manual_control.py Side)
6095,1744588351.7874897,End Get Vehicle Position (on manual_control.py Side)
6095,1744588351.7874765,Start Get Vehicle Position (on record.py Side)
6095,1744588351.7874885,End Get Vehicle Position (on record.py Side)
6094,1744588351.7753208,Start of Saving Image: frame_6094.png
6094,1744588351.7886267,End of Saving Image: frame_6094.png
6095,1744588351.776285,Start of Frame 6095
6095,1744588351.7935598,End of Frame 6095
6096,1744588351.803841,Start Get Vehicle Position (on manual_control.py Side)
6096,1744588351.803853,End Get Vehicle Position (on manual_control.py Side)
6096,1744588351.8038418,Start Get Vehicle Position (on record.py Side)
6096,1744588351.803852,End Get Vehicle Position (on record.py Side)
6096,1744588351.7935653,Start of Frame 6096
6096,1744588351.8101678,End of Frame 6096
6097,1744588351.8195605,Start Get Vehicle Position (on manual_control.py Side)
6097,1744588351.8195798,End Get Vehicle Position (on manual_control.py Side)
6097,1744588351.819562,Start Get Vehicle Position (on record.py Side)
6097,1744588351.8195786,End Get Vehicle Position (on record.py Side)
5933,1744588351.7080567,Start of Saving Image: frame_5933.png
5933,1744588351.8216152,End of Saving Image: frame_5933.png
6095,1744588351.8037436,Start of Saving Image: frame_6095.png
6095,1744588351.8216634,End of Saving Image: frame_6095.png
6097,1744588351.8101757,Start of Frame 6097
6097,1744588351.830229,End of Frame 6097
6097,1744588351.8356767,Start Get Vehicle Position (on manual_control.py Side)
6097,1744588351.8356903,End Get Vehicle Position (on manual_control.py Side)
6097,1744588351.8356774,Start Get Vehicle Position (on record.py Side)
6097,1744588351.8356895,End Get Vehicle Position (on record.py Side)
6096,1744588351.829398,Start of Saving Image: frame_6096.png
6096,1744588351.8459587,End of Saving Image: frame_6096.png
6097,1744588351.8302362,Start of Frame 6097
6097,1744588351.8466258,End of Frame 6097
6098,1744588351.8514833,Start Get Vehicle Position (on manual_control.py Side)
6098,1744588351.8515024,End Get Vehicle Position (on manual_control.py Side)
6098,1744588351.8514848,Start Get Vehicle Position (on record.py Side)
6098,1744588351.8515012,End Get Vehicle Position (on record.py Side)
6098,1744588351.846644,Start of Frame 6098
6098,1744588351.858976,End of Frame 6098
6099,1744588351.8675745,Start Get Vehicle Position (on manual_control.py Side)
6099,1744588351.8675954,End Get Vehicle Position (on manual_control.py Side)
6099,1744588351.8675764,Start Get Vehicle Position (on record.py Side)
6099,1744588351.8675945,End Get Vehicle Position (on record.py Side)
6097,1744588351.8462791,Start of Saving Image: frame_6097.png
6097,1744588351.8690152,End of Saving Image: frame_6097.png
6099,1744588351.858988,Start of Frame 6099
6099,1744588351.874615,End of Frame 6099
6100,1744588351.8835979,Start Get Vehicle Position (on manual_control.py Side)
6100,1744588351.8836162,End Get Vehicle Position (on manual_control.py Side)
6100,1744588351.883599,Start Get Vehicle Position (on record.py Side)
6100,1744588351.8836126,End Get Vehicle Position (on record.py Side)
6098,1744588351.8693147,Start of Saving Image: frame_6098.png
6098,1744588351.8847888,End of Saving Image: frame_6098.png
6100,1744588351.874625,Start of Frame 6100
6100,1744588351.8905919,End of Frame 6100
6101,1744588351.899624,Start Get Vehicle Position (on manual_control.py Side)
6101,1744588351.8996444,End Get Vehicle Position (on manual_control.py Side)
6101,1744588351.899626,Start Get Vehicle Position (on record.py Side)
6101,1744588351.8996432,End Get Vehicle Position (on record.py Side)
6099,1744588351.8850803,Start of Saving Image: frame_6099.png
6099,1744588351.9016633,End of Saving Image: frame_6099.png
6100,1744588351.902049,Start of Saving Image: frame_6100.png
6100,1744588351.9096231,End of Saving Image: frame_6100.png
6101,1744588351.8906019,Start of Frame 6101
6101,1744588351.9112046,End of Frame 6101
6101,1744588351.9154966,Start Get Vehicle Position (on manual_control.py Side)
6101,1744588351.9155154,End Get Vehicle Position (on manual_control.py Side)
6101,1744588351.915498,Start Get Vehicle Position (on record.py Side)
6101,1744588351.9155145,End Get Vehicle Position (on record.py Side)
6101,1744588351.9112127,Start of Frame 6101
6101,1744588351.9226787,End of Frame 6101
6102,1744588351.931561,Start Get Vehicle Position (on manual_control.py Side)
6102,1744588351.931579,End Get Vehicle Position (on manual_control.py Side)
6102,1744588351.931562,Start Get Vehicle Position (on record.py Side)
6102,1744588351.931578,End Get Vehicle Position (on record.py Side)
6101,1744588351.919941,Start of Saving Image: frame_6101.png
6101,1744588351.9328399,End of Saving Image: frame_6101.png
5934,1744588351.8300202,Start of Saving Image: frame_5934.png
5934,1744588351.9372573,End of Saving Image: frame_5934.png
6102,1744588351.9226882,Start of Frame 6102
6102,1744588351.9419725,End of Frame 6102
6103,1744588351.947928,Start Get Vehicle Position (on manual_control.py Side)
6103,1744588351.9479427,End Get Vehicle Position (on manual_control.py Side)
6103,1744588351.9479291,Start Get Vehicle Position (on record.py Side)
6103,1744588351.9479415,End Get Vehicle Position (on record.py Side)
6103,1744588351.9419785,Start of Frame 6103
6103,1744588351.9530795,End of Frame 6103
6104,1744588351.9625862,Start Get Vehicle Position (on manual_control.py Side)
6104,1744588351.9625988,End Get Vehicle Position (on manual_control.py Side)
6104,1744588351.962587,Start Get Vehicle Position (on record.py Side)
6104,1744588351.9625978,End Get Vehicle Position (on record.py Side)
6102,1744588351.9476697,Start of Saving Image: frame_6102.png
6102,1744588351.963735,End of Saving Image: frame_6102.png
6103,1744588351.9639904,Start of Saving Image: frame_6103.png
6103,1744588351.9706905,End of Saving Image: frame_6103.png
6104,1744588351.9530852,Start of Frame 6104
6104,1744588351.972312,End of Frame 6104
6104,1744588351.9784749,Start Get Vehicle Position (on manual_control.py Side)
6104,1744588351.97849,End Get Vehicle Position (on manual_control.py Side)
6104,1744588351.9784758,Start Get Vehicle Position (on record.py Side)
6104,1744588351.978489,End Get Vehicle Position (on record.py Side)
6104,1744588351.9723186,Start of Frame 6104
6104,1744588351.9839458,End of Frame 6104
6105,1744588351.994552,Start Get Vehicle Position (on manual_control.py Side)
6105,1744588351.9945679,End Get Vehicle Position (on manual_control.py Side)
6105,1744588351.994553,Start Get Vehicle Position (on record.py Side)
6105,1744588351.994567,End Get Vehicle Position (on record.py Side)
6104,1744588351.98175,Start of Saving Image: frame_6104.png
6104,1744588351.9957159,End of Saving Image: frame_6104.png
6105,1744588351.9839518,Start of Frame 6105
6105,1744588352.000383,End of Frame 6105
6106,1744588352.0117903,Start Get Vehicle Position (on manual_control.py Side)
6106,1744588352.0118053,End Get Vehicle Position (on manual_control.py Side)
6106,1744588352.0117915,Start Get Vehicle Position (on record.py Side)
6106,1744588352.0118039,End Get Vehicle Position (on record.py Side)
6106,1744588352.0003936,Start of Frame 6106
6106,1744588352.0181227,End of Frame 6106
6107,1744588352.0275726,Start Get Vehicle Position (on manual_control.py Side)
6107,1744588352.027592,End Get Vehicle Position (on manual_control.py Side)
6107,1744588352.027574,Start Get Vehicle Position (on record.py Side)
6107,1744588352.0275908,End Get Vehicle Position (on record.py Side)
6105,1744588352.0116646,Start of Saving Image: frame_6105.png
6105,1744588352.029513,End of Saving Image: frame_6105.png
6107,1744588352.018133,Start of Frame 6107
6107,1744588352.0341556,End of Frame 6107
6108,1744588352.043478,Start Get Vehicle Position (on manual_control.py Side)
6108,1744588352.0435433,End Get Vehicle Position (on manual_control.py Side)
6108,1744588352.043479,Start Get Vehicle Position (on record.py Side)
6108,1744588352.0435426,End Get Vehicle Position (on record.py Side)
6106,1744588352.0297678,Start of Saving Image: frame_6106.png
6106,1744588352.044673,End of Saving Image: frame_6106.png
5935,1744588351.9417343,Start of Saving Image: frame_5935.png
5935,1744588352.0492,End of Saving Image: frame_5935.png
6108,1744588352.0341632,Start of Frame 6108
6108,1744588352.0576515,End of Frame 6108
6108,1744588352.0595448,Start Get Vehicle Position (on manual_control.py Side)
6108,1744588352.0595658,End Get Vehicle Position (on manual_control.py Side)
6108,1744588352.0595467,Start Get Vehicle Position (on record.py Side)
6108,1744588352.0595646,End Get Vehicle Position (on record.py Side)
6107,1744588352.0457125,Start of Saving Image: frame_6107.png
6107,1744588352.0620103,End of Saving Image: frame_6107.png
6108,1744588352.057666,Start of Frame 6108
6108,1744588352.0735111,End of Frame 6108
6109,1744588352.0754974,Start Get Vehicle Position (on manual_control.py Side)
6109,1744588352.0755105,End Get Vehicle Position (on manual_control.py Side)
6109,1744588352.0754983,Start Get Vehicle Position (on record.py Side)
6109,1744588352.0755098,End Get Vehicle Position (on record.py Side)
6108,1744588352.0669026,Start of Saving Image: frame_6108.png
6108,1744588352.0767238,End of Saving Image: frame_6108.png
6109,1744588352.0735188,Start of Frame 6109
6109,1744588352.0820868,End of Frame 6109
6110,1744588352.0919175,Start Get Vehicle Position (on manual_control.py Side)
6110,1744588352.0919375,End Get Vehicle Position (on manual_control.py Side)
6110,1744588352.0919194,Start Get Vehicle Position (on record.py Side)
6110,1744588352.0919363,End Get Vehicle Position (on record.py Side)
6110,1744588352.0820982,Start of Frame 6110
6110,1744588352.098911,End of Frame 6110
6111,1744588352.1076376,Start Get Vehicle Position (on manual_control.py Side)
6111,1744588352.1076565,End Get Vehicle Position (on manual_control.py Side)
6111,1744588352.1076388,Start Get Vehicle Position (on record.py Side)
6111,1744588352.1076512,End Get Vehicle Position (on record.py Side)
6109,1744588352.0917325,Start of Saving Image: frame_6109.png
6109,1744588352.1088977,End of Saving Image: frame_6109.png
6111,1744588352.0989187,Start of Frame 6111
6111,1744588352.1139312,End of Frame 6111
6112,1744588352.1236007,Start Get Vehicle Position (on manual_control.py Side)
6112,1744588352.123615,End Get Vehicle Position (on manual_control.py Side)
6112,1744588352.1236017,Start Get Vehicle Position (on record.py Side)
6112,1744588352.1236138,End Get Vehicle Position (on record.py Side)
6110,1744588352.1091373,Start of Saving Image: frame_6110.png
6110,1744588352.1249464,End of Saving Image: frame_6110.png
6111,1744588352.1252933,Start of Saving Image: frame_6111.png
6111,1744588352.1327498,End of Saving Image: frame_6111.png
6112,1744588352.1139383,Start of Frame 6112
6112,1744588352.134793,End of Frame 6112
6112,1744588352.1394954,Start Get Vehicle Position (on manual_control.py Side)
6112,1744588352.1395097,End Get Vehicle Position (on manual_control.py Side)
6112,1744588352.1394966,Start Get Vehicle Position (on record.py Side)
6112,1744588352.1395087,End Get Vehicle Position (on record.py Side)
6112,1744588352.134799,Start of Frame 6112
6112,1744588352.1439867,End of Frame 6112
6112,1744588352.1554499,Start Get Vehicle Position (on manual_control.py Side)
6112,1744588352.1554601,End Get Vehicle Position (on manual_control.py Side)
6112,1744588352.1554508,Start Get Vehicle Position (on record.py Side)
6112,1744588352.1554592,End Get Vehicle Position (on record.py Side)
5936,1744588352.0601707,Start of Saving Image: frame_5936.png
5936,1744588352.1584587,End of Saving Image: frame_5936.png
6112,1744588352.1439908,Start of Frame 6112
6112,1744588352.1629505,End of Frame 6112
6112,1744588352.1717305,Start Get Vehicle Position (on manual_control.py Side)
6112,1744588352.171743,End Get Vehicle Position (on manual_control.py Side)
6112,1744588352.1717315,Start Get Vehicle Position (on record.py Side)
6112,1744588352.1717422,End Get Vehicle Position (on record.py Side)
6112,1744588352.162956,Start of Frame 6112
6112,1744588352.1765726,End of Frame 6112
6112,1744588352.187464,Start Get Vehicle Position (on manual_control.py Side)
6112,1744588352.187476,End Get Vehicle Position (on manual_control.py Side)
6112,1744588352.1874647,Start Get Vehicle Position (on record.py Side)
6112,1744588352.187475,End Get Vehicle Position (on record.py Side)
6112,1744588352.1765783,Start of Frame 6112
6112,1744588352.192823,End of Frame 6112
6113,1744588352.2036295,Start Get Vehicle Position (on manual_control.py Side)
6113,1744588352.2036426,End Get Vehicle Position (on manual_control.py Side)
6113,1744588352.203631,Start Get Vehicle Position (on record.py Side)
6113,1744588352.2036417,End Get Vehicle Position (on record.py Side)
6112,1744588352.2049203,Start of Saving Image: frame_6112.png
6112,1744588352.2116427,End of Saving Image: frame_6112.png
6113,1744588352.1928275,Start of Frame 6113
6113,1744588352.2138424,End of Frame 6113
6113,1744588352.2195067,Start Get Vehicle Position (on manual_control.py Side)
6113,1744588352.2195213,End Get Vehicle Position (on manual_control.py Side)
6113,1744588352.2195077,Start Get Vehicle Position (on record.py Side)
6113,1744588352.2195203,End Get Vehicle Position (on record.py Side)
6113,1744588352.2138464,Start of Frame 6113
6113,1744588352.2329288,End of Frame 6113
6114,1744588352.2354708,Start Get Vehicle Position (on manual_control.py Side)
6114,1744588352.2354858,End Get Vehicle Position (on manual_control.py Side)
6114,1744588352.2354724,Start Get Vehicle Position (on record.py Side)
6114,1744588352.235485,End Get Vehicle Position (on record.py Side)
6113,1744588352.2268598,Start of Saving Image: frame_6113.png
6113,1744588352.2366376,End of Saving Image: frame_6113.png
6114,1744588352.2329364,Start of Frame 6114
6114,1744588352.240595,End of Frame 6114
6115,1744588352.2519271,Start Get Vehicle Position (on manual_control.py Side)
6115,1744588352.251947,End Get Vehicle Position (on manual_control.py Side)
6115,1744588352.2519283,Start Get Vehicle Position (on record.py Side)
6115,1744588352.251946,End Get Vehicle Position (on record.py Side)
6115,1744588352.2406032,Start of Frame 6115
6115,1744588352.2589784,End of Frame 6115
6116,1744588352.2676263,Start Get Vehicle Position (on manual_control.py Side)
6116,1744588352.267641,End Get Vehicle Position (on manual_control.py Side)
6116,1744588352.2676275,Start Get Vehicle Position (on record.py Side)
6116,1744588352.2676399,End Get Vehicle Position (on record.py Side)
6114,1744588352.251787,Start of Saving Image: frame_6114.png
6114,1744588352.26881,End of Saving Image: frame_6114.png
6116,1744588352.2589881,Start of Frame 6116
6116,1744588352.2738519,End of Frame 6116
6117,1744588352.2835648,Start Get Vehicle Position (on manual_control.py Side)
6117,1744588352.2835846,End Get Vehicle Position (on manual_control.py Side)
6117,1744588352.2835662,Start Get Vehicle Position (on record.py Side)
6117,1744588352.2835834,End Get Vehicle Position (on record.py Side)
5937,1744588352.1628592,Start of Saving Image: frame_5937.png
5937,1744588352.2855742,End of Saving Image: frame_5937.png
6115,1744588352.2691,Start of Saving Image: frame_6115.png
6115,1744588352.2855978,End of Saving Image: frame_6115.png
6117,1744588352.2738628,Start of Frame 6117
6117,1744588352.2937422,End of Frame 6117
6117,1744588352.2994864,Start Get Vehicle Position (on manual_control.py Side)
6117,1744588352.2995036,End Get Vehicle Position (on manual_control.py Side)
6117,1744588352.2994878,Start Get Vehicle Position (on record.py Side)
6117,1744588352.2995024,End Get Vehicle Position (on record.py Side)
6116,1744588352.290499,Start of Saving Image: frame_6116.png
6116,1744588352.3007169,End of Saving Image: frame_6116.png
6117,1744588352.2937515,Start of Frame 6117
6117,1744588352.3043044,End of Frame 6117
6118,1744588352.3158646,Start Get Vehicle Position (on manual_control.py Side)
6118,1744588352.315881,End Get Vehicle Position (on manual_control.py Side)
6118,1744588352.3158658,Start Get Vehicle Position (on record.py Side)
6118,1744588352.3158798,End Get Vehicle Position (on record.py Side)
6118,1744588352.304311,Start of Frame 6118
6118,1744588352.3236942,End of Frame 6118
6119,1744588352.33154,Start Get Vehicle Position (on manual_control.py Side)
6119,1744588352.3315606,End Get Vehicle Position (on manual_control.py Side)
6119,1744588352.3315418,Start Get Vehicle Position (on record.py Side)
6119,1744588352.3315597,End Get Vehicle Position (on record.py Side)
6117,1744588352.3157463,Start of Saving Image: frame_6117.png
6117,1744588352.3335986,End of Saving Image: frame_6117.png
6119,1744588352.3237057,Start of Frame 6119
6119,1744588352.3396003,End of Frame 6119
6120,1744588352.3476295,Start Get Vehicle Position (on manual_control.py Side)
6120,1744588352.3476498,End Get Vehicle Position (on manual_control.py Side)
6120,1744588352.3476312,Start Get Vehicle Position (on record.py Side)
6120,1744588352.3476486,End Get Vehicle Position (on record.py Side)
6118,1744588352.3338478,Start of Saving Image: frame_6118.png
6118,1744588352.3496146,End of Saving Image: frame_6118.png
6120,1744588352.3396177,Start of Frame 6120
6120,1744588352.3550456,End of Frame 6120
6121,1744588352.3636076,Start Get Vehicle Position (on manual_control.py Side)
6121,1744588352.363626,End Get Vehicle Position (on manual_control.py Side)
6121,1744588352.363609,Start Get Vehicle Position (on record.py Side)
6121,1744588352.3636248,End Get Vehicle Position (on record.py Side)
6119,1744588352.34987,Start of Saving Image: frame_6119.png
6119,1744588352.3658204,End of Saving Image: frame_6119.png
6121,1744588352.355056,Start of Frame 6121
6121,1744588352.3725955,End of Frame 6121
6122,1744588352.3806226,Start Get Vehicle Position (on manual_control.py Side)
6122,1744588352.3806417,End Get Vehicle Position (on manual_control.py Side)
6122,1744588352.380624,Start Get Vehicle Position (on record.py Side)
6122,1744588352.3806405,End Get Vehicle Position (on record.py Side)
6120,1744588352.3660717,Start of Saving Image: frame_6120.png
6120,1744588352.3825903,End of Saving Image: frame_6120.png
6121,1744588352.3828409,Start of Saving Image: frame_6121.png
6121,1744588352.3896308,End of Saving Image: frame_6121.png
6122,1744588352.372605,Start of Frame 6122
6122,1744588352.3908052,End of Frame 6122
6122,1744588352.3964937,Start Get Vehicle Position (on manual_control.py Side)
6122,1744588352.3965127,End Get Vehicle Position (on manual_control.py Side)
6122,1744588352.396495,Start Get Vehicle Position (on record.py Side)
6122,1744588352.3965113,End Get Vehicle Position (on record.py Side)
6122,1744588352.3996444,Start of Saving Image: frame_6122.png
6122,1744588352.4065654,End of Saving Image: frame_6122.png
6122,1744588352.3908124,Start of Frame 6122
6122,1744588352.4112523,End of Frame 6122
6123,1744588352.4124548,Start of KEYUP: a
6123,1744588352.4124606,End of KEYUP: a
6123,1744588352.412555,Start Get Vehicle Position (on manual_control.py Side)
6123,1744588352.4125729,End Get Vehicle Position (on manual_control.py Side)
6123,1744588352.412556,Start Get Vehicle Position (on record.py Side)
6123,1744588352.412572,End Get Vehicle Position (on record.py Side)
5938,1744588352.290157,Start of Saving Image: frame_5938.png
5938,1744588352.4173925,End of Saving Image: frame_5938.png
6123,1744588352.41126,Start of Frame 6123
6123,1744588352.4252737,End of Frame 6123
6124,1744588352.4284682,Start Get Vehicle Position (on manual_control.py Side)
6124,1744588352.4284825,End Get Vehicle Position (on manual_control.py Side)
6124,1744588352.4284697,Start Get Vehicle Position (on record.py Side)
6124,1744588352.4284816,End Get Vehicle Position (on record.py Side)
6124,1744588352.4252837,Start of Frame 6124
6124,1744588352.4365015,End of Frame 6124
6125,1744588352.4445083,Start Get Vehicle Position (on manual_control.py Side)
6125,1744588352.4445217,End Get Vehicle Position (on manual_control.py Side)
6125,1744588352.4445095,Start Get Vehicle Position (on record.py Side)
6125,1744588352.4445207,End Get Vehicle Position (on record.py Side)
6123,1744588352.428712,Start of Saving Image: frame_6123.png
6123,1744588352.4456215,End of Saving Image: frame_6123.png
6124,1744588352.446336,Start of Saving Image: frame_6124.png
6124,1744588352.4531708,End of Saving Image: frame_6124.png
6125,1744588352.4365094,Start of Frame 6125
6125,1744588352.453284,End of Frame 6125
6125,1744588352.4605417,Start Get Vehicle Position (on manual_control.py Side)
6125,1744588352.4605627,End Get Vehicle Position (on manual_control.py Side)
6125,1744588352.4605432,Start Get Vehicle Position (on record.py Side)
6125,1744588352.4605587,End Get Vehicle Position (on record.py Side)
6125,1744588352.463201,Start of Saving Image: frame_6125.png
6125,1744588352.4720712,End of Saving Image: frame_6125.png
6125,1744588352.4532907,Start of Frame 6125
6125,1744588352.4738772,End of Frame 6125
6126,1744588352.4764884,Start Get Vehicle Position (on manual_control.py Side)
6126,1744588352.4765072,End Get Vehicle Position (on manual_control.py Side)
6126,1744588352.4764898,Start Get Vehicle Position (on record.py Side)
6126,1744588352.4765058,End Get Vehicle Position (on record.py Side)
6126,1744588352.4738855,Start of Frame 6126
6126,1744588352.4860206,End of Frame 6126
6127,1744588352.4926047,Start Get Vehicle Position (on manual_control.py Side)
6127,1744588352.4926193,End Get Vehicle Position (on manual_control.py Side)
6127,1744588352.4926057,Start Get Vehicle Position (on record.py Side)
6127,1744588352.492618,End Get Vehicle Position (on record.py Side)
6126,1744588352.4825253,Start of Saving Image: frame_6126.png
6126,1744588352.4938478,End of Saving Image: frame_6126.png
6127,1744588352.48603,Start of Frame 6127
6127,1744588352.4986598,End of Frame 6127
6128,1744588352.5088096,Start Get Vehicle Position (on manual_control.py Side)
6128,1744588352.5088222,End Get Vehicle Position (on manual_control.py Side)
6128,1744588352.5088105,Start Get Vehicle Position (on record.py Side)
6128,1744588352.5088212,End Get Vehicle Position (on record.py Side)
6128,1744588352.4986718,Start of Frame 6128
6128,1744588352.5149915,End of Frame 6128
6129,1744588352.524626,Start Get Vehicle Position (on manual_control.py Side)
6129,1744588352.524642,End Get Vehicle Position (on manual_control.py Side)
6129,1744588352.5246272,Start Get Vehicle Position (on record.py Side)
6129,1744588352.5246406,End Get Vehicle Position (on record.py Side)
6127,1744588352.5086956,Start of Saving Image: frame_6127.png
6127,1744588352.5257354,End of Saving Image: frame_6127.png
6129,1744588352.5150027,Start of Frame 6129
6129,1744588352.5313377,End of Frame 6129
6130,1744588352.5405633,Start Get Vehicle Position (on manual_control.py Side)
6130,1744588352.5405831,End Get Vehicle Position (on manual_control.py Side)
6130,1744588352.540565,Start Get Vehicle Position (on record.py Side)
6130,1744588352.540582,End Get Vehicle Position (on record.py Side)
6128,1744588352.5259879,Start of Saving Image: frame_6128.png
6128,1744588352.5427277,End of Saving Image: frame_6128.png
6130,1744588352.531348,Start of Frame 6130
6130,1744588352.549274,End of Frame 6130
6130,1744588352.5565133,Start Get Vehicle Position (on manual_control.py Side)
6130,1744588352.5565295,End Get Vehicle Position (on manual_control.py Side)
6130,1744588352.5565145,Start Get Vehicle Position (on record.py Side)
6130,1744588352.556528,End Get Vehicle Position (on record.py Side)
6129,1744588352.5429947,Start of Saving Image: frame_6129.png
6129,1744588352.5576713,End of Saving Image: frame_6129.png
6130,1744588352.5579178,Start of Saving Image: frame_6130.png
6130,1744588352.5671494,End of Saving Image: frame_6130.png
6130,1744588352.5492845,Start of Frame 6130
6130,1744588352.568126,End of Frame 6130
6131,1744588352.572473,Start Get Vehicle Position (on manual_control.py Side)
6131,1744588352.572487,End Get Vehicle Position (on manual_control.py Side)
6131,1744588352.5724738,Start Get Vehicle Position (on record.py Side)
6131,1744588352.5724862,End Get Vehicle Position (on record.py Side)
5939,1744588352.4287388,Start of Saving Image: frame_5939.png
5939,1744588352.5737681,End of Saving Image: frame_5939.png
6131,1744588352.5681887,Start of Frame 6131
6131,1744588352.5787802,End of Frame 6131
6132,1744588352.588553,Start Get Vehicle Position (on manual_control.py Side)
6132,1744588352.5885687,End Get Vehicle Position (on manual_control.py Side)
6132,1744588352.5885541,Start Get Vehicle Position (on record.py Side)
6132,1744588352.5885675,End Get Vehicle Position (on record.py Side)
6132,1744588352.5787892,Start of Frame 6132
6132,1744588352.5960643,End of Frame 6132
6133,1744588352.6045494,Start Get Vehicle Position (on manual_control.py Side)
6133,1744588352.6045687,End Get Vehicle Position (on manual_control.py Side)
6133,1744588352.6045508,Start Get Vehicle Position (on record.py Side)
6133,1744588352.6045675,End Get Vehicle Position (on record.py Side)
6131,1744588352.5900843,Start of Saving Image: frame_6131.png
6131,1744588352.606183,End of Saving Image: frame_6131.png
6133,1744588352.596077,Start of Frame 6133
6133,1744588352.61033,End of Frame 6133
6134,1744588352.6205785,Start Get Vehicle Position (on manual_control.py Side)
6134,1744588352.620594,End Get Vehicle Position (on manual_control.py Side)
6134,1744588352.62058,Start Get Vehicle Position (on record.py Side)
6134,1744588352.6205928,End Get Vehicle Position (on record.py Side)
6132,1744588352.6064267,Start of Saving Image: frame_6132.png
6132,1744588352.6217942,End of Saving Image: frame_6132.png
6133,1744588352.6220608,Start of Saving Image: frame_6133.png
6133,1744588352.6296413,End of Saving Image: frame_6133.png
6134,1744588352.6103375,Start of Frame 6134
6134,1744588352.6297975,End of Frame 6134
6134,1744588352.6364713,Start Get Vehicle Position (on manual_control.py Side)
6134,1744588352.636486,End Get Vehicle Position (on manual_control.py Side)
6134,1744588352.6364722,Start Get Vehicle Position (on record.py Side)
6134,1744588352.6364849,End Get Vehicle Position (on record.py Side)
6134,1744588352.629802,Start of Frame 6134
6134,1744588352.6462235,End of Frame 6134
6135,1744588352.6524734,Start Get Vehicle Position (on manual_control.py Side)
6135,1744588352.6524887,End Get Vehicle Position (on manual_control.py Side)
6135,1744588352.6524744,Start Get Vehicle Position (on record.py Side)
6135,1744588352.6524878,End Get Vehicle Position (on record.py Side)
6134,1744588352.6380334,Start of Saving Image: frame_6134.png
6134,1744588352.6536808,End of Saving Image: frame_6134.png
6135,1744588352.6462317,Start of Frame 6135
6135,1744588352.6588624,End of Frame 6135
6136,1744588352.6688817,Start Get Vehicle Position (on manual_control.py Side)
6136,1744588352.6688995,End Get Vehicle Position (on manual_control.py Side)
6136,1744588352.6688828,Start Get Vehicle Position (on record.py Side)
6136,1744588352.6688983,End Get Vehicle Position (on record.py Side)
6136,1744588352.6588724,Start of Frame 6136
6136,1744588352.6778097,End of Frame 6136
6137,1744588352.6845508,Start Get Vehicle Position (on manual_control.py Side)
6137,1744588352.684572,End Get Vehicle Position (on manual_control.py Side)
6137,1744588352.6845524,Start Get Vehicle Position (on record.py Side)
6137,1744588352.6845703,End Get Vehicle Position (on record.py Side)
6135,1744588352.668751,Start of Saving Image: frame_6135.png
6135,1744588352.6865177,End of Saving Image: frame_6135.png
6137,1744588352.677823,Start of Frame 6137
6137,1744588352.6937864,End of Frame 6137
6137,1744588352.700573,Start Get Vehicle Position (on manual_control.py Side)
6137,1744588352.700594,End Get Vehicle Position (on manual_control.py Side)
6137,1744588352.7005742,Start Get Vehicle Position (on record.py Side)
6137,1744588352.7005928,End Get Vehicle Position (on record.py Side)
6136,1744588352.6868308,Start of Saving Image: frame_6136.png
6136,1744588352.7018855,End of Saving Image: frame_6136.png
6137,1744588352.6937964,Start of Frame 6137
6137,1744588352.7136858,End of Frame 6137
6138,1744588352.7164886,Start Get Vehicle Position (on manual_control.py Side)
6138,1744588352.7165074,End Get Vehicle Position (on manual_control.py Side)
6138,1744588352.71649,Start Get Vehicle Position (on record.py Side)
6138,1744588352.716506,End Get Vehicle Position (on record.py Side)
6137,1744588352.707475,Start of Saving Image: frame_6137.png
6137,1744588352.7183728,End of Saving Image: frame_6137.png
6138,1744588352.713697,Start of Frame 6138
6138,1744588352.7229364,End of Frame 6138
6139,1744588352.732988,Start Get Vehicle Position (on manual_control.py Side)
6139,1744588352.733003,End Get Vehicle Position (on manual_control.py Side)
6139,1744588352.7329895,Start Get Vehicle Position (on record.py Side)
6139,1744588352.733002,End Get Vehicle Position (on record.py Side)
5940,1744588352.5786345,Start of Saving Image: frame_5940.png
5940,1744588352.7346725,End of Saving Image: frame_5940.png
6139,1744588352.7229447,Start of Frame 6139
6139,1744588352.7417119,End of Frame 6139
6140,1744588352.749238,Start Get Vehicle Position (on manual_control.py Side)
6140,1744588352.7492511,End Get Vehicle Position (on manual_control.py Side)
6140,1744588352.7492387,Start Get Vehicle Position (on record.py Side)
6140,1744588352.74925,End Get Vehicle Position (on record.py Side)
6138,1744588352.7327404,Start of Saving Image: frame_6138.png
6138,1744588352.7503748,End of Saving Image: frame_6138.png
6140,1744588352.741721,Start of Frame 6140
6140,1744588352.7547307,End of Frame 6140
6141,1744588352.7646346,Start Get Vehicle Position (on manual_control.py Side)
6141,1744588352.7646596,End Get Vehicle Position (on manual_control.py Side)
6141,1744588352.7646363,Start Get Vehicle Position (on record.py Side)
6141,1744588352.7646582,End Get Vehicle Position (on record.py Side)
6139,1744588352.7506793,Start of Saving Image: frame_6139.png
6139,1744588352.7667384,End of Saving Image: frame_6139.png
6141,1744588352.7547424,Start of Frame 6141
6141,1744588352.775374,End of Frame 6141
6141,1744588352.7814605,Start of KEYUP: w
6141,1744588352.7814667,End of KEYUP: w
6141,1744588352.781552,Start Get Vehicle Position (on manual_control.py Side)
6141,1744588352.7815716,End Get Vehicle Position (on manual_control.py Side)
6141,1744588352.7815537,Start Get Vehicle Position (on record.py Side)
6141,1744588352.7815702,End Get Vehicle Position (on record.py Side)
6140,1744588352.768096,Start of Saving Image: frame_6140.png
6140,1744588352.7840252,End of Saving Image: frame_6140.png
6141,1744588352.7753892,Start of Frame 6141
6141,1744588352.7894268,End of Frame 6141
6142,1744588352.7975175,Start Get Vehicle Position (on manual_control.py Side)
6142,1744588352.7975354,End Get Vehicle Position (on manual_control.py Side)
6142,1744588352.7975187,Start Get Vehicle Position (on record.py Side)
6142,1744588352.7975342,End Get Vehicle Position (on record.py Side)
6142,1744588352.7894342,Start of Frame 6142
6142,1744588352.8055077,End of Frame 6142
6143,1744588352.813575,Start Get Vehicle Position (on manual_control.py Side)
6143,1744588352.8135886,End Get Vehicle Position (on manual_control.py Side)
6143,1744588352.8135762,Start Get Vehicle Position (on record.py Side)
6143,1744588352.813588,End Get Vehicle Position (on record.py Side)
6141,1744588352.789114,Start of Saving Image: frame_6141.png
6141,1744588352.8147175,End of Saving Image: frame_6141.png
6143,1744588352.8055217,Start of Frame 6143
6143,1744588352.8205018,End of Frame 6143
6143,1744588352.8295276,Start Get Vehicle Position (on manual_control.py Side)
6143,1744588352.8295429,End Get Vehicle Position (on manual_control.py Side)
6143,1744588352.8295286,Start Get Vehicle Position (on record.py Side)
6143,1744588352.8295417,End Get Vehicle Position (on record.py Side)
6142,1744588352.8149707,Start of Saving Image: frame_6142.png
6142,1744588352.830696,End of Saving Image: frame_6142.png
6143,1744588352.83097,Start of Saving Image: frame_6143.png
6143,1744588352.839323,End of Saving Image: frame_6143.png
6143,1744588352.8205132,Start of Frame 6143
6143,1744588352.8426685,End of Frame 6143
6144,1744588352.8454673,Start Get Vehicle Position (on manual_control.py Side)
6144,1744588352.8454819,End Get Vehicle Position (on manual_control.py Side)
6144,1744588352.8454685,Start Get Vehicle Position (on record.py Side)
6144,1744588352.845481,End Get Vehicle Position (on record.py Side)
6144,1744588352.842674,Start of Frame 6144
6144,1744588352.851077,End of Frame 6144
6145,1744588352.8618486,Start Get Vehicle Position (on manual_control.py Side)
6145,1744588352.8618617,End Get Vehicle Position (on manual_control.py Side)
6145,1744588352.8618495,Start Get Vehicle Position (on record.py Side)
6145,1744588352.8618605,End Get Vehicle Position (on record.py Side)
6145,1744588352.851088,Start of Frame 6145
6145,1744588352.8676467,End of Frame 6145
6146,1744588352.8775795,Start Get Vehicle Position (on manual_control.py Side)
6146,1744588352.8775933,End Get Vehicle Position (on manual_control.py Side)
6146,1744588352.877581,Start Get Vehicle Position (on record.py Side)
6146,1744588352.8775923,End Get Vehicle Position (on record.py Side)
6144,1744588352.8616934,Start of Saving Image: frame_6144.png
6144,1744588352.8787348,End of Saving Image: frame_6144.png
6145,1744588352.8790295,Start of Saving Image: frame_6145.png
6145,1744588352.88619,End of Saving Image: frame_6145.png
6146,1744588352.8676605,Start of Frame 6146
6146,1744588352.8878295,End of Frame 6146
6146,1744588352.893489,Start Get Vehicle Position (on manual_control.py Side)
6146,1744588352.8935084,End Get Vehicle Position (on manual_control.py Side)
6146,1744588352.89349,Start Get Vehicle Position (on record.py Side)
6146,1744588352.8935068,End Get Vehicle Position (on record.py Side)
6146,1744588352.887838,Start of Frame 6146
6146,1744588352.901619,End of Frame 6146
6147,1744588352.9096093,Start Get Vehicle Position (on manual_control.py Side)
6147,1744588352.9096296,End Get Vehicle Position (on manual_control.py Side)
6147,1744588352.9096105,Start Get Vehicle Position (on record.py Side)
6147,1744588352.9096286,End Get Vehicle Position (on record.py Side)
6147,1744588352.9016273,Start of Frame 6147
6147,1744588352.917408,End of Frame 6147
6148,1744588352.9255862,Start Get Vehicle Position (on manual_control.py Side)
6148,1744588352.925605,End Get Vehicle Position (on manual_control.py Side)
6148,1744588352.9255877,Start Get Vehicle Position (on record.py Side)
6148,1744588352.9256039,End Get Vehicle Position (on record.py Side)
6146,1744588352.9014797,Start of Saving Image: frame_6146.png
6146,1744588352.9275224,End of Saving Image: frame_6146.png
5941,1744588352.74913,Start of Saving Image: frame_5941.png
5941,1744588352.9283617,End of Saving Image: frame_5941.png
6148,1744588352.9174209,Start of Frame 6148
6148,1744588352.9331164,End of Frame 6148
6149,1744588352.9416962,Start Get Vehicle Position (on manual_control.py Side)
6149,1744588352.9417157,End Get Vehicle Position (on manual_control.py Side)
6149,1744588352.9416978,Start Get Vehicle Position (on record.py Side)
6149,1744588352.9417145,End Get Vehicle Position (on record.py Side)
6149,1744588352.9331243,Start of Frame 6149
6149,1744588352.9507716,End of Frame 6149
6149,1744588352.9575312,Start Get Vehicle Position (on manual_control.py Side)
6149,1744588352.9575527,End Get Vehicle Position (on manual_control.py Side)
6149,1744588352.9575331,Start Get Vehicle Position (on record.py Side)
6149,1744588352.9575512,End Get Vehicle Position (on record.py Side)
6147,1744588352.9278576,Start of Saving Image: frame_6147.png
6147,1744588352.9576156,End of Saving Image: frame_6147.png
6148,1744588352.9597516,Start of Saving Image: frame_6148.png
6148,1744588352.9675615,End of Saving Image: frame_6148.png
6149,1744588352.9507823,Start of Frame 6149
6149,1744588352.968787,End of Frame 6149
6150,1744588352.9724596,Start Get Vehicle Position (on manual_control.py Side)
6150,1744588352.9724739,End Get Vehicle Position (on manual_control.py Side)
6150,1744588352.9724605,Start Get Vehicle Position (on record.py Side)
6150,1744588352.972473,End Get Vehicle Position (on record.py Side)
6149,1744588352.9678981,Start of Saving Image: frame_6149.png
6149,1744588352.9768353,End of Saving Image: frame_6149.png
6150,1744588352.9687912,Start of Frame 6150
6150,1744588352.9787467,End of Frame 6150
6151,1744588352.9885561,Start Get Vehicle Position (on manual_control.py Side)
6151,1744588352.9885707,End Get Vehicle Position (on manual_control.py Side)
6151,1744588352.9885573,Start Get Vehicle Position (on record.py Side)
6151,1744588352.9885695,End Get Vehicle Position (on record.py Side)
6150,1744588352.9778805,Start of Saving Image: frame_6150.png
6150,1744588352.9897077,End of Saving Image: frame_6150.png
6151,1744588352.9787536,Start of Frame 6151
6151,1744588352.994185,End of Frame 6151
6152,1744588353.0044928,Start Get Vehicle Position (on manual_control.py Side)
6152,1744588353.004511,End Get Vehicle Position (on manual_control.py Side)
6152,1744588353.0044944,Start Get Vehicle Position (on record.py Side)
6152,1744588353.00451,End Get Vehicle Position (on record.py Side)
6152,1744588352.994193,Start of Frame 6152
6152,1744588353.010968,End of Frame 6152
6152,1744588353.0205932,Start Get Vehicle Position (on manual_control.py Side)
6152,1744588353.020608,End Get Vehicle Position (on manual_control.py Side)
6152,1744588353.0205941,Start Get Vehicle Position (on record.py Side)
6152,1744588353.0206072,End Get Vehicle Position (on record.py Side)
6151,1744588353.0048544,Start of Saving Image: frame_6151.png
6151,1744588353.0217311,End of Saving Image: frame_6151.png
6152,1744588353.021968,Start of Saving Image: frame_6152.png
6152,1744588353.0285056,End of Saving Image: frame_6152.png
6152,1744588353.0109746,Start of Frame 6152
6152,1744588353.0327194,End of Frame 6152
6153,1744588353.0364828,Start Get Vehicle Position (on manual_control.py Side)
6153,1744588353.0364978,End Get Vehicle Position (on manual_control.py Side)
6153,1744588353.0364838,Start Get Vehicle Position (on record.py Side)
6153,1744588353.036497,End Get Vehicle Position (on record.py Side)
6153,1744588353.0327244,Start of Frame 6153
6153,1744588353.0413532,End of Frame 6153
6154,1744588353.0528588,Start Get Vehicle Position (on manual_control.py Side)
6154,1744588353.052873,End Get Vehicle Position (on manual_control.py Side)
6154,1744588353.05286,Start Get Vehicle Position (on record.py Side)
6154,1744588353.052872,End Get Vehicle Position (on record.py Side)
6154,1744588353.0413601,Start of Frame 6154
6154,1744588353.0587983,End of Frame 6154
6155,1744588353.0685995,Start Get Vehicle Position (on manual_control.py Side)
6155,1744588353.0686147,End Get Vehicle Position (on manual_control.py Side)
6155,1744588353.068601,Start Get Vehicle Position (on record.py Side)
6155,1744588353.0686135,End Get Vehicle Position (on record.py Side)
6153,1744588353.0527463,Start of Saving Image: frame_6153.png
6153,1744588353.0698485,End of Saving Image: frame_6153.png
6155,1744588353.0588076,Start of Frame 6155
6155,1744588353.074496,End of Frame 6155
6155,1744588353.0844815,Start Get Vehicle Position (on manual_control.py Side)
6155,1744588353.0844934,End Get Vehicle Position (on manual_control.py Side)
6155,1744588353.0844822,Start Get Vehicle Position (on record.py Side)
6155,1744588353.0844924,End Get Vehicle Position (on record.py Side)
6154,1744588353.070087,Start of Saving Image: frame_6154.png
6154,1744588353.0855513,End of Saving Image: frame_6154.png
6155,1744588353.074501,Start of Frame 6155
6155,1744588353.0891507,End of Frame 6155
6155,1744588353.1004763,Start Get Vehicle Position (on manual_control.py Side)
6155,1744588353.1004903,End Get Vehicle Position (on manual_control.py Side)
6155,1744588353.1004772,Start Get Vehicle Position (on record.py Side)
6155,1744588353.1004877,End Get Vehicle Position (on record.py Side)
6155,1744588353.089156,Start of Frame 6155
6155,1744588353.1052144,End of Frame 6155
6155,1744588353.1164525,Start Get Vehicle Position (on manual_control.py Side)
6155,1744588353.116465,End Get Vehicle Position (on manual_control.py Side)
6155,1744588353.1164532,Start Get Vehicle Position (on record.py Side)
6155,1744588353.1164644,End Get Vehicle Position (on record.py Side)
6155,1744588353.105219,Start of Frame 6155
6155,1744588353.1214566,End of Frame 6155
6155,1744588353.1324532,Start Get Vehicle Position (on manual_control.py Side)
6155,1744588353.1324623,End Get Vehicle Position (on manual_control.py Side)
6155,1744588353.132454,Start Get Vehicle Position (on record.py Side)
6155,1744588353.1324615,End Get Vehicle Position (on record.py Side)
5942,1744588352.9329228,Start of Saving Image: frame_5942.png
5942,1744588353.1334763,End of Saving Image: frame_5942.png
6155,1744588353.1214604,Start of Frame 6155
6155,1744588353.138086,End of Frame 6155
6155,1744588353.1485105,Start Get Vehicle Position (on manual_control.py Side)
6155,1744588353.1485243,End Get Vehicle Position (on manual_control.py Side)
6155,1744588353.1485112,Start Get Vehicle Position (on record.py Side)
6155,1744588353.1485233,End Get Vehicle Position (on record.py Side)
6155,1744588353.1381013,Start of Frame 6155
6155,1744588353.1541154,End of Frame 6155
6155,1744588353.1644552,Start Get Vehicle Position (on manual_control.py Side)
6155,1744588353.1644676,End Get Vehicle Position (on manual_control.py Side)
6155,1744588353.164456,Start Get Vehicle Position (on record.py Side)
6155,1744588353.1644666,End Get Vehicle Position (on record.py Side)
6155,1744588353.1541226,Start of Frame 6155
6155,1744588353.1700249,End of Frame 6155
6155,1744588353.1804507,Start Get Vehicle Position (on manual_control.py Side)
6155,1744588353.1804628,End Get Vehicle Position (on manual_control.py Side)
6155,1744588353.1804516,Start Get Vehicle Position (on record.py Side)
6155,1744588353.1804621,End Get Vehicle Position (on record.py Side)
6155,1744588353.1700299,Start of Frame 6155
6155,1744588353.1847765,End of Frame 6155
6155,1744588353.1964564,Start Get Vehicle Position (on manual_control.py Side)
6155,1744588353.1964695,End Get Vehicle Position (on manual_control.py Side)
6155,1744588353.196457,Start Get Vehicle Position (on record.py Side)
6155,1744588353.196468,End Get Vehicle Position (on record.py Side)
6155,1744588353.1847801,Start of Frame 6155
6155,1744588353.2010868,End of Frame 6155
6155,1744588353.2124681,Start Get Vehicle Position (on manual_control.py Side)
6155,1744588353.2124825,End Get Vehicle Position (on manual_control.py Side)
6155,1744588353.2124693,Start Get Vehicle Position (on record.py Side)
6155,1744588353.2124817,End Get Vehicle Position (on record.py Side)
6155,1744588353.2010913,Start of Frame 6155
6155,1744588353.2214768,End of Frame 6155
6156,1744588353.2284884,Start Get Vehicle Position (on manual_control.py Side)
6156,1744588353.228508,End Get Vehicle Position (on manual_control.py Side)
6156,1744588353.2284896,Start Get Vehicle Position (on record.py Side)
6156,1744588353.2285068,End Get Vehicle Position (on record.py Side)
6155,1744588353.2203953,Start of Saving Image: frame_6155.png
6155,1744588353.2303936,End of Saving Image: frame_6155.png
6156,1744588353.2214868,Start of Frame 6156
6156,1744588353.2360294,End of Frame 6156
6157,1744588353.244718,Start Get Vehicle Position (on manual_control.py Side)
6157,1744588353.2447295,End Get Vehicle Position (on manual_control.py Side)
6157,1744588353.2447188,Start Get Vehicle Position (on record.py Side)
6157,1744588353.2447286,End Get Vehicle Position (on record.py Side)
6157,1744588353.2360384,Start of Frame 6157
6157,1744588353.2498376,End of Frame 6157
6158,1744588353.2605238,Start Get Vehicle Position (on manual_control.py Side)
6158,1744588353.2605388,End Get Vehicle Position (on manual_control.py Side)
6158,1744588353.2605247,Start Get Vehicle Position (on record.py Side)
6158,1744588353.2605379,End Get Vehicle Position (on record.py Side)
6156,1744588353.244638,Start of Saving Image: frame_6156.png
6156,1744588353.2616847,End of Saving Image: frame_6156.png
6158,1744588353.2498448,Start of Frame 6158
6158,1744588353.2673,End of Frame 6158
6158,1744588353.2765172,Start Get Vehicle Position (on manual_control.py Side)
6158,1744588353.2765322,End Get Vehicle Position (on manual_control.py Side)
6158,1744588353.276518,Start Get Vehicle Position (on record.py Side)
6158,1744588353.276531,End Get Vehicle Position (on record.py Side)
6157,1744588353.2620094,Start of Saving Image: frame_6157.png
6157,1744588353.2778118,End of Saving Image: frame_6157.png
6158,1744588353.2673085,Start of Frame 6158
6158,1744588353.288852,End of Frame 6158
6159,1744588353.29245,Start Get Vehicle Position (on manual_control.py Side)
6159,1744588353.2924616,End Get Vehicle Position (on manual_control.py Side)
6159,1744588353.292451,Start Get Vehicle Position (on record.py Side)
6159,1744588353.2924604,End Get Vehicle Position (on record.py Side)
6158,1744588353.2802384,Start of Saving Image: frame_6158.png
6158,1744588353.293451,End of Saving Image: frame_6158.png
6159,1744588353.2888582,Start of Frame 6159
6159,1744588353.2977128,End of Frame 6159
6160,1744588353.3090005,Start Get Vehicle Position (on manual_control.py Side)
6160,1744588353.3090162,End Get Vehicle Position (on manual_control.py Side)
6160,1744588353.3090017,Start Get Vehicle Position (on record.py Side)
6160,1744588353.3090153,End Get Vehicle Position (on record.py Side)
6160,1744588353.297721,Start of Frame 6160
6160,1744588353.316251,End of Frame 6160
6161,1744588353.3245592,Start Get Vehicle Position (on manual_control.py Side)
6161,1744588353.3245742,End Get Vehicle Position (on manual_control.py Side)
6161,1744588353.3245604,Start Get Vehicle Position (on record.py Side)
6161,1744588353.3245733,End Get Vehicle Position (on record.py Side)
6159,1744588353.308871,Start of Saving Image: frame_6159.png
6159,1744588353.3256724,End of Saving Image: frame_6159.png
6161,1744588353.31626,Start of Frame 6161
6161,1744588353.3310008,End of Frame 6161
6162,1744588353.3405132,Start Get Vehicle Position (on manual_control.py Side)
6162,1744588353.340528,End Get Vehicle Position (on manual_control.py Side)
6162,1744588353.3405147,Start Get Vehicle Position (on record.py Side)
6162,1744588353.340527,End Get Vehicle Position (on record.py Side)
6160,1744588353.3259132,Start of Saving Image: frame_6160.png
6160,1744588353.3415923,End of Saving Image: frame_6160.png
6161,1744588353.3418446,Start of Saving Image: frame_6161.png
6161,1744588353.348679,End of Saving Image: frame_6161.png
6162,1744588353.3310084,Start of Frame 6162
6162,1744588353.351995,End of Frame 6162
6162,1744588353.3564656,Start Get Vehicle Position (on manual_control.py Side)
6162,1744588353.35648,End Get Vehicle Position (on manual_control.py Side)
6162,1744588353.3564668,Start Get Vehicle Position (on record.py Side)
6162,1744588353.356479,End Get Vehicle Position (on record.py Side)
6162,1744588353.3520014,Start of Frame 6162
6162,1744588353.3618,End of Frame 6162
6163,1744588353.372891,Start of KEYUP: s
6163,1744588353.3728957,End of KEYUP: s
6163,1744588353.372958,Start Get Vehicle Position (on manual_control.py Side)
6163,1744588353.3729713,End Get Vehicle Position (on manual_control.py Side)
6163,1744588353.372959,Start Get Vehicle Position (on record.py Side)
6163,1744588353.3729706,End Get Vehicle Position (on record.py Side)
5943,1744588353.1378818,Start of Saving Image: frame_5943.png
5943,1744588353.3745666,End of Saving Image: frame_5943.png
6163,1744588353.3618128,Start of Frame 6163
6163,1744588353.3799498,End of Frame 6163
6164,1744588353.3896282,Start Get Vehicle Position (on manual_control.py Side)
6164,1744588353.3896453,End Get Vehicle Position (on manual_control.py Side)
6164,1744588353.3896294,Start Get Vehicle Position (on record.py Side)
6164,1744588353.3896444,End Get Vehicle Position (on record.py Side)
6164,1744588353.379955,Start of Frame 6164
6164,1744588353.3957307,End of Frame 6164
6165,1744588353.4055474,Start Get Vehicle Position (on manual_control.py Side)
6165,1744588353.40556,End Get Vehicle Position (on manual_control.py Side)
6165,1744588353.4055483,Start Get Vehicle Position (on record.py Side)
6165,1744588353.405559,End Get Vehicle Position (on record.py Side)
6162,1744588353.3726962,Start of Saving Image: frame_6162.png
6162,1744588353.406683,End of Saving Image: frame_6162.png
6163,1744588353.406934,Start of Saving Image: frame_6163.png
6163,1744588353.4143395,End of Saving Image: frame_6163.png
6165,1744588353.395738,Start of Frame 6165
6165,1744588353.415168,End of Frame 6165
6165,1744588353.4214501,Start Get Vehicle Position (on manual_control.py Side)
6165,1744588353.4214635,End Get Vehicle Position (on manual_control.py Side)
6165,1744588353.4214513,Start Get Vehicle Position (on record.py Side)
6165,1744588353.4214628,End Get Vehicle Position (on record.py Side)
6164,1744588353.4145842,Start of Saving Image: frame_6164.png
6164,1744588353.4226804,End of Saving Image: frame_6164.png
6165,1744588353.415173,Start of Frame 6165
6165,1744588353.4268684,End of Frame 6165
6166,1744588353.4378126,Start Get Vehicle Position (on manual_control.py Side)
6166,1744588353.437825,End Get Vehicle Position (on manual_control.py Side)
6166,1744588353.4378135,Start Get Vehicle Position (on record.py Side)
6166,1744588353.437824,End Get Vehicle Position (on record.py Side)
6166,1744588353.426879,Start of Frame 6166
6166,1744588353.4444022,End of Frame 6166
6167,1744588353.453577,Start Get Vehicle Position (on manual_control.py Side)
6167,1744588353.4535987,End Get Vehicle Position (on manual_control.py Side)
6167,1744588353.4535785,Start Get Vehicle Position (on record.py Side)
6167,1744588353.453597,End Get Vehicle Position (on record.py Side)
6165,1744588353.4376214,Start of Saving Image: frame_6165.png
6165,1744588353.455678,End of Saving Image: frame_6165.png
6167,1744588353.4444153,Start of Frame 6167
6167,1744588353.4611042,End of Frame 6167
6168,1744588353.4694934,Start Get Vehicle Position (on manual_control.py Side)
6168,1744588353.4695132,End Get Vehicle Position (on manual_control.py Side)
6168,1744588353.469495,Start Get Vehicle Position (on record.py Side)
6168,1744588353.4695117,End Get Vehicle Position (on record.py Side)
6166,1744588353.4559956,Start of Saving Image: frame_6166.png
6166,1744588353.4713566,End of Saving Image: frame_6166.png
6168,1744588353.461118,Start of Frame 6168
6168,1744588353.4802022,End of Frame 6168
6168,1744588353.4855895,Start Get Vehicle Position (on manual_control.py Side)
6168,1744588353.4856095,End Get Vehicle Position (on manual_control.py Side)
6168,1744588353.485591,Start Get Vehicle Position (on record.py Side)
6168,1744588353.485608,End Get Vehicle Position (on record.py Side)
6167,1744588353.4716716,Start of Saving Image: frame_6167.png
6167,1744588353.4876695,End of Saving Image: frame_6167.png
6168,1744588353.4928243,Start of Saving Image: frame_6168.png
6168,1744588353.498644,End of Saving Image: frame_6168.png
6168,1744588353.480214,Start of Frame 6168
6168,1744588353.4992597,End of Frame 6168
6169,1744588353.5014756,Start Get Vehicle Position (on manual_control.py Side)
6169,1744588353.5014892,End Get Vehicle Position (on manual_control.py Side)
6169,1744588353.5014763,Start Get Vehicle Position (on record.py Side)
6169,1744588353.5014884,End Get Vehicle Position (on record.py Side)
6169,1744588353.499264,Start of Frame 6169
6169,1744588353.5067558,End of Frame 6169
6170,1744588353.5180535,Start Get Vehicle Position (on manual_control.py Side)
6170,1744588353.518069,End Get Vehicle Position (on manual_control.py Side)
6170,1744588353.5180547,Start Get Vehicle Position (on record.py Side)
6170,1744588353.518068,End Get Vehicle Position (on record.py Side)
6170,1744588353.5067627,Start of Frame 6170
6170,1744588353.5243044,End of Frame 6170
6171,1744588353.5337098,Start Get Vehicle Position (on manual_control.py Side)
6171,1744588353.533724,End Get Vehicle Position (on manual_control.py Side)
6171,1744588353.5337112,Start Get Vehicle Position (on record.py Side)
6171,1744588353.533723,End Get Vehicle Position (on record.py Side)
6169,1744588353.517723,Start of Saving Image: frame_6169.png
6169,1744588353.5337665,End of Saving Image: frame_6169.png
6170,1744588353.5355184,Start of Saving Image: frame_6170.png
6170,1744588353.5421214,End of Saving Image: frame_6170.png
6171,1744588353.5243142,Start of Frame 6171
6171,1744588353.543146,End of Frame 6171
6171,1744588353.5495117,Start Get Vehicle Position (on manual_control.py Side)
6171,1744588353.5495327,End Get Vehicle Position (on manual_control.py Side)
6171,1744588353.549513,Start Get Vehicle Position (on record.py Side)
6171,1744588353.5495315,End Get Vehicle Position (on record.py Side)
6171,1744588353.543153,Start of Frame 6171
6171,1744588353.5621889,End of Frame 6171
6172,1744588353.565478,Start Get Vehicle Position (on manual_control.py Side)
6172,1744588353.5654933,End Get Vehicle Position (on manual_control.py Side)
6172,1744588353.5654795,Start Get Vehicle Position (on record.py Side)
6172,1744588353.5654924,End Get Vehicle Position (on record.py Side)
6171,1744588353.5566938,Start of Saving Image: frame_6171.png
6171,1744588353.5666962,End of Saving Image: frame_6171.png
6172,1744588353.562197,Start of Frame 6172
6172,1744588353.5708823,End of Frame 6172
6173,1744588353.5818918,Start Get Vehicle Position (on manual_control.py Side)
6173,1744588353.5819116,End Get Vehicle Position (on manual_control.py Side)
6173,1744588353.5818934,Start Get Vehicle Position (on record.py Side)
6173,1744588353.5819101,End Get Vehicle Position (on record.py Side)
6173,1744588353.570895,Start of Frame 6173
6173,1744588353.59113,End of Frame 6173
6174,1744588353.5975611,Start Get Vehicle Position (on manual_control.py Side)
6174,1744588353.5975833,End Get Vehicle Position (on manual_control.py Side)
6174,1744588353.5975628,Start Get Vehicle Position (on record.py Side)
6174,1744588353.597582,End Get Vehicle Position (on record.py Side)
6172,1744588353.5817037,Start of Saving Image: frame_6172.png
6172,1744588353.599307,End of Saving Image: frame_6172.png
6173,1744588353.5995688,Start of Saving Image: frame_6173.png
6173,1744588353.6057625,End of Saving Image: frame_6173.png
6174,1744588353.5911436,Start of Frame 6174
6174,1744588353.6087484,End of Frame 6174
6174,1744588353.6134782,Start Get Vehicle Position (on manual_control.py Side)
6174,1744588353.613494,End Get Vehicle Position (on manual_control.py Side)
6174,1744588353.6134791,Start Get Vehicle Position (on record.py Side)
6174,1744588353.613493,End Get Vehicle Position (on record.py Side)
5944,1744588353.3792465,Start of Saving Image: frame_5944.png
5944,1744588353.614747,End of Saving Image: frame_5944.png
6174,1744588353.6087532,Start of Frame 6174
6174,1744588353.6224506,End of Frame 6174
6175,1744588353.6297045,Start Get Vehicle Position (on manual_control.py Side)
6175,1744588353.6297195,End Get Vehicle Position (on manual_control.py Side)
6175,1744588353.6297054,Start Get Vehicle Position (on record.py Side)
6175,1744588353.6297183,End Get Vehicle Position (on record.py Side)
6175,1744588353.6224575,Start of Frame 6175
6175,1744588353.6366494,End of Frame 6175
6176,1744588353.645629,Start Get Vehicle Position (on manual_control.py Side)
6176,1744588353.6456475,End Get Vehicle Position (on manual_control.py Side)
6176,1744588353.6456301,Start Get Vehicle Position (on record.py Side)
6176,1744588353.6456463,End Get Vehicle Position (on record.py Side)
6174,1744588353.622418,Start of Saving Image: frame_6174.png
6174,1744588353.6476955,End of Saving Image: frame_6174.png
6176,1744588353.6366644,Start of Frame 6176
6176,1744588353.6533449,End of Frame 6176
6177,1744588353.6616333,Start Get Vehicle Position (on manual_control.py Side)
6177,1744588353.6616602,End Get Vehicle Position (on manual_control.py Side)
6177,1744588353.6616352,Start Get Vehicle Position (on record.py Side)
6177,1744588353.6616516,End Get Vehicle Position (on record.py Side)
6175,1744588353.6485639,Start of Saving Image: frame_6175.png
6175,1744588353.6635711,End of Saving Image: frame_6175.png
6176,1744588353.663856,Start of Saving Image: frame_6176.png
6176,1744588353.6698887,End of Saving Image: frame_6176.png
6177,1744588353.653357,Start of Frame 6177
6177,1744588353.6715095,End of Frame 6177
6177,1744588353.6774983,Start Get Vehicle Position (on manual_control.py Side)
6177,1744588353.6775196,End Get Vehicle Position (on manual_control.py Side)
6177,1744588353.6774993,Start Get Vehicle Position (on record.py Side)
6177,1744588353.6775184,End Get Vehicle Position (on record.py Side)
6177,1744588353.679772,Start of Saving Image: frame_6177.png
6177,1744588353.687024,End of Saving Image: frame_6177.png
6177,1744588353.6715176,Start of Frame 6177
6177,1744588353.6896052,End of Frame 6177
6178,1744588353.6934693,Start Get Vehicle Position (on manual_control.py Side)
6178,1744588353.6934826,End Get Vehicle Position (on manual_control.py Side)
6178,1744588353.69347,Start Get Vehicle Position (on record.py Side)
6178,1744588353.6934817,End Get Vehicle Position (on record.py Side)
6178,1744588353.689614,Start of Frame 6178
6178,1744588353.698742,End of Frame 6178
6179,1744588353.7095027,Start Get Vehicle Position (on manual_control.py Side)
6179,1744588353.7095165,End Get Vehicle Position (on manual_control.py Side)
6179,1744588353.7095034,Start Get Vehicle Position (on record.py Side)
6179,1744588353.7095156,End Get Vehicle Position (on record.py Side)
6178,1744588353.6978016,Start of Saving Image: frame_6178.png
6178,1744588353.7106469,End of Saving Image: frame_6178.png
6179,1744588353.6987505,Start of Frame 6179
6179,1744588353.7158098,End of Frame 6179
6180,1744588353.7258792,Start Get Vehicle Position (on manual_control.py Side)
6180,1744588353.7258925,End Get Vehicle Position (on manual_control.py Side)
6180,1744588353.7258801,Start Get Vehicle Position (on record.py Side)
6180,1744588353.7258914,End Get Vehicle Position (on record.py Side)
6180,1744588353.7158208,Start of Frame 6180
6180,1744588353.7321482,End of Frame 6180
6181,1744588353.7415504,Start Get Vehicle Position (on manual_control.py Side)
6181,1744588353.74157,End Get Vehicle Position (on manual_control.py Side)
6181,1744588353.7415516,Start Get Vehicle Position (on record.py Side)
6181,1744588353.7415688,End Get Vehicle Position (on record.py Side)
6179,1744588353.72571,Start of Saving Image: frame_6179.png
6179,1744588353.7428653,End of Saving Image: frame_6179.png
6180,1744588353.7431245,Start of Saving Image: frame_6180.png
6180,1744588353.7500405,End of Saving Image: frame_6180.png
6181,1744588353.7321591,Start of Frame 6181
6181,1744588353.7501583,End of Frame 6181
6182,1744588353.7574697,Start Get Vehicle Position (on manual_control.py Side)
6182,1744588353.757485,End Get Vehicle Position (on manual_control.py Side)
6182,1744588353.757471,Start Get Vehicle Position (on record.py Side)
6182,1744588353.7574835,End Get Vehicle Position (on record.py Side)
6181,1744588353.7588186,Start of Saving Image: frame_6181.png
6181,1744588353.767094,End of Saving Image: frame_6181.png
6182,1744588353.750165,Start of Frame 6182
6182,1744588353.769522,End of Frame 6182
6182,1744588353.7734547,Start Get Vehicle Position (on manual_control.py Side)
6182,1744588353.77347,End Get Vehicle Position (on manual_control.py Side)
6182,1744588353.7734556,Start Get Vehicle Position (on record.py Side)
6182,1744588353.7734687,End Get Vehicle Position (on record.py Side)
6182,1744588353.769527,Start of Frame 6182
6182,1744588353.7796657,End of Frame 6182
6183,1744588353.7895896,Start Get Vehicle Position (on manual_control.py Side)
6183,1744588353.789609,End Get Vehicle Position (on manual_control.py Side)
6183,1744588353.789591,Start Get Vehicle Position (on record.py Side)
6183,1744588353.7896078,End Get Vehicle Position (on record.py Side)
6183,1744588353.7796745,Start of Frame 6183
6183,1744588353.7958446,End of Frame 6183
6184,1744588353.8055282,Start Get Vehicle Position (on manual_control.py Side)
6184,1744588353.8055456,End Get Vehicle Position (on manual_control.py Side)
6184,1744588353.8055294,Start Get Vehicle Position (on record.py Side)
6184,1744588353.805542,End Get Vehicle Position (on record.py Side)
6182,1744588353.7791317,Start of Saving Image: frame_6182.png
6182,1744588353.8066337,End of Saving Image: frame_6182.png
6184,1744588353.7958562,Start of Frame 6184
6184,1744588353.8112817,End of Frame 6184
6185,1744588353.8215408,Start Get Vehicle Position (on manual_control.py Side)
6185,1744588353.8215554,End Get Vehicle Position (on manual_control.py Side)
6185,1744588353.8215418,Start Get Vehicle Position (on record.py Side)
6185,1744588353.8215542,End Get Vehicle Position (on record.py Side)
6183,1744588353.806879,Start of Saving Image: frame_6183.png
6183,1744588353.8226476,End of Saving Image: frame_6183.png
6184,1744588353.8229022,Start of Saving Image: frame_6184.png
6184,1744588353.8294048,End of Saving Image: frame_6184.png
6185,1744588353.8112924,Start of Frame 6185
6185,1744588353.8326492,End of Frame 6185
6185,1744588353.837464,Start Get Vehicle Position (on manual_control.py Side)
6185,1744588353.8374789,End Get Vehicle Position (on manual_control.py Side)
6185,1744588353.837465,Start Get Vehicle Position (on record.py Side)
6185,1744588353.837478,End Get Vehicle Position (on record.py Side)
6185,1744588353.8326604,Start of Frame 6185
6185,1744588353.8428886,End of Frame 6185
6186,1744588353.8539295,Start Get Vehicle Position (on manual_control.py Side)
6186,1744588353.8539417,End Get Vehicle Position (on manual_control.py Side)
6186,1744588353.8539302,Start Get Vehicle Position (on record.py Side)
6186,1744588353.8539407,End Get Vehicle Position (on record.py Side)
5945,1744588353.629742,Start of Saving Image: frame_5945.png
5945,1744588353.8553827,End of Saving Image: frame_5945.png
6186,1744588353.8429022,Start of Frame 6186
6186,1744588353.8613129,End of Frame 6186
6187,1744588353.8695843,Start Get Vehicle Position (on manual_control.py Side)
6187,1744588353.8695989,End Get Vehicle Position (on manual_control.py Side)
6187,1744588353.8695855,Start Get Vehicle Position (on record.py Side)
6187,1744588353.869598,End Get Vehicle Position (on record.py Side)
6185,1744588353.8536425,Start of Saving Image: frame_6185.png
6185,1744588353.8709939,End of Saving Image: frame_6185.png
6187,1744588353.8613207,Start of Frame 6187
6187,1744588353.877556,End of Frame 6187
6187,1744588353.8854923,Start Get Vehicle Position (on manual_control.py Side)
6187,1744588353.8855133,End Get Vehicle Position (on manual_control.py Side)
6187,1744588353.8854935,Start Get Vehicle Position (on record.py Side)
6187,1744588353.8855116,End Get Vehicle Position (on record.py Side)
6186,1744588353.8713794,Start of Saving Image: frame_6186.png
6186,1744588353.8876896,End of Saving Image: frame_6186.png
6187,1744588353.8879573,Start of Saving Image: frame_6187.png
6187,1744588353.8948796,End of Saving Image: frame_6187.png
6187,1744588353.8775678,Start of Frame 6187
6187,1744588353.899317,End of Frame 6187
6188,1744588353.9014566,Start Get Vehicle Position (on manual_control.py Side)
6188,1744588353.9014704,End Get Vehicle Position (on manual_control.py Side)
6188,1744588353.9014575,Start Get Vehicle Position (on record.py Side)
6188,1744588353.9014697,End Get Vehicle Position (on record.py Side)
6188,1744588353.899323,Start of Frame 6188
6188,1744588353.9068716,End of Frame 6188
6189,1744588353.9179137,Start Get Vehicle Position (on manual_control.py Side)
6189,1744588353.9179275,End Get Vehicle Position (on manual_control.py Side)
6189,1744588353.9179144,Start Get Vehicle Position (on record.py Side)
6189,1744588353.9179263,End Get Vehicle Position (on record.py Side)
6189,1744588353.906878,Start of Frame 6189
6189,1744588353.9253488,End of Frame 6189
6190,1744588353.933728,Start Get Vehicle Position (on manual_control.py Side)
6190,1744588353.933743,End Get Vehicle Position (on manual_control.py Side)
6190,1744588353.9337292,Start Get Vehicle Position (on record.py Side)
6190,1744588353.9337416,End Get Vehicle Position (on record.py Side)
6188,1744588353.917681,Start of Saving Image: frame_6188.png
6188,1744588353.934966,End of Saving Image: frame_6188.png
6190,1744588353.92536,Start of Frame 6190
6190,1744588353.9396179,End of Frame 6190
6191,1744588353.9496012,Start Get Vehicle Position (on manual_control.py Side)
6191,1744588353.9496212,End Get Vehicle Position (on manual_control.py Side)
6191,1744588353.9496028,Start Get Vehicle Position (on record.py Side)
6191,1744588353.9496198,End Get Vehicle Position (on record.py Side)
6189,1744588353.9352894,Start of Saving Image: frame_6189.png
6189,1744588353.9517307,End of Saving Image: frame_6189.png
6191,1744588353.9396274,Start of Frame 6191
6191,1744588353.9593258,End of Frame 6191
6191,1744588353.9644713,Start Get Vehicle Position (on manual_control.py Side)
6191,1744588353.9644864,End Get Vehicle Position (on manual_control.py Side)
6191,1744588353.9644723,Start Get Vehicle Position (on record.py Side)
6191,1744588353.9644854,End Get Vehicle Position (on record.py Side)
6190,1744588353.9520328,Start of Saving Image: frame_6190.png
6190,1744588353.9658263,End of Saving Image: frame_6190.png
6191,1744588353.9593372,Start of Frame 6191
6191,1744588353.970541,End of Frame 6191
6192,1744588353.9805872,Start Get Vehicle Position (on manual_control.py Side)
6192,1744588353.9806058,End Get Vehicle Position (on manual_control.py Side)
6192,1744588353.9805882,Start Get Vehicle Position (on record.py Side)
6192,1744588353.9806046,End Get Vehicle Position (on record.py Side)
6191,1744588353.9675646,Start of Saving Image: frame_6191.png
6191,1744588353.9826615,End of Saving Image: frame_6191.png
6192,1744588353.9705493,Start of Frame 6192
6192,1744588353.9887033,End of Frame 6192
6193,1744588353.9966025,Start Get Vehicle Position (on manual_control.py Side)
6193,1744588353.996621,End Get Vehicle Position (on manual_control.py Side)
6193,1744588353.996604,Start Get Vehicle Position (on record.py Side)
6193,1744588353.9966197,End Get Vehicle Position (on record.py Side)
6193,1744588353.9887102,Start of Frame 6193
6193,1744588354.0032318,End of Frame 6193
6194,1744588354.012557,Start Get Vehicle Position (on manual_control.py Side)
6194,1744588354.0125709,End Get Vehicle Position (on manual_control.py Side)
6194,1744588354.012558,Start Get Vehicle Position (on record.py Side)
6194,1744588354.01257,End Get Vehicle Position (on record.py Side)
6192,1744588353.9881253,Start of Saving Image: frame_6192.png
6192,1744588354.013806,End of Saving Image: frame_6192.png
6193,1744588354.0141292,Start of Saving Image: frame_6193.png
6193,1744588354.0216947,End of Saving Image: frame_6193.png
6194,1744588354.0032403,Start of Frame 6194
6194,1744588354.0218298,End of Frame 6194
6194,1744588354.02847,Start Get Vehicle Position (on manual_control.py Side)
6194,1744588354.0284867,End Get Vehicle Position (on manual_control.py Side)
6194,1744588354.028471,Start Get Vehicle Position (on record.py Side)
6194,1744588354.028485,End Get Vehicle Position (on record.py Side)
6194,1744588354.0218356,Start of Frame 6194
6194,1744588354.0332782,End of Frame 6194
6195,1744588354.04468,Start Get Vehicle Position (on manual_control.py Side)
6195,1744588354.0446942,End Get Vehicle Position (on manual_control.py Side)
6195,1744588354.0446813,Start Get Vehicle Position (on record.py Side)
6195,1744588354.0446932,End Get Vehicle Position (on record.py Side)
6194,1744588354.03149,Start of Saving Image: frame_6194.png
6194,1744588354.0459332,End of Saving Image: frame_6194.png
6195,1744588354.033284,Start of Frame 6195
6195,1744588354.0505452,End of Frame 6195
6196,1744588354.0608482,Start Get Vehicle Position (on manual_control.py Side)
6196,1744588354.0608597,End Get Vehicle Position (on manual_control.py Side)
6196,1744588354.060849,Start Get Vehicle Position (on record.py Side)
6196,1744588354.0608592,End Get Vehicle Position (on record.py Side)
6196,1744588354.0505521,Start of Frame 6196
6196,1744588354.0658438,End of Frame 6196
6197,1744588354.0765703,Start Get Vehicle Position (on manual_control.py Side)
6197,1744588354.0765858,End Get Vehicle Position (on manual_control.py Side)
6197,1744588354.076572,Start Get Vehicle Position (on record.py Side)
6197,1744588354.0765843,End Get Vehicle Position (on record.py Side)
6195,1744588354.0607495,Start of Saving Image: frame_6195.png
6195,1744588354.077695,End of Saving Image: frame_6195.png
6196,1744588354.077998,Start of Saving Image: frame_6196.png
6196,1744588354.0867107,End of Saving Image: frame_6196.png
6197,1744588354.0658486,Start of Frame 6197
6197,1744588354.0879114,End of Frame 6197
6197,1744588354.0924804,Start Get Vehicle Position (on manual_control.py Side)
6197,1744588354.0925002,End Get Vehicle Position (on manual_control.py Side)
6197,1744588354.0924819,Start Get Vehicle Position (on record.py Side)
6197,1744588354.0924993,End Get Vehicle Position (on record.py Side)
5946,1744588353.860165,Start of Saving Image: frame_5946.png
5946,1744588354.0946162,End of Saving Image: frame_5946.png
6197,1744588354.0879178,Start of Frame 6197
6197,1744588354.1030602,End of Frame 6197
6198,1744588354.108531,Start Get Vehicle Position (on manual_control.py Side)
6198,1744588354.1085513,End Get Vehicle Position (on manual_control.py Side)
6198,1744588354.1085324,Start Get Vehicle Position (on record.py Side)
6198,1744588354.10855,End Get Vehicle Position (on record.py Side)
6197,1744588354.0998104,Start of Saving Image: frame_6197.png
6197,1744588354.110459,End of Saving Image: frame_6197.png
6198,1744588354.1030679,Start of Frame 6198
6198,1744588354.1167643,End of Frame 6198
6199,1744588354.1247365,Start Get Vehicle Position (on manual_control.py Side)
6199,1744588354.1247542,End Get Vehicle Position (on manual_control.py Side)
6199,1744588354.1247375,Start Get Vehicle Position (on record.py Side)
6199,1744588354.1247523,End Get Vehicle Position (on record.py Side)
6199,1744588354.1167758,Start of Frame 6199
6199,1744588354.133344,End of Frame 6199
6200,1744588354.1405663,Start Get Vehicle Position (on manual_control.py Side)
6200,1744588354.140582,End Get Vehicle Position (on manual_control.py Side)
6200,1744588354.1405675,Start Get Vehicle Position (on record.py Side)
6200,1744588354.1405811,End Get Vehicle Position (on record.py Side)
6198,1744588354.1246057,Start of Saving Image: frame_6198.png
6198,1744588354.1417453,End of Saving Image: frame_6198.png
6200,1744588354.133352,Start of Frame 6200
6200,1744588354.1496613,End of Frame 6200
6200,1744588354.1565776,Start Get Vehicle Position (on manual_control.py Side)
6200,1744588354.1565917,End Get Vehicle Position (on manual_control.py Side)
6200,1744588354.1565788,Start Get Vehicle Position (on record.py Side)
6200,1744588354.1565907,End Get Vehicle Position (on record.py Side)
6199,1744588354.141994,Start of Saving Image: frame_6199.png
6199,1744588354.157778,End of Saving Image: frame_6199.png
6200,1744588354.1496732,Start of Frame 6200
6200,1744588354.161945,End of Frame 6200
6201,1744588354.1725347,Start Get Vehicle Position (on manual_control.py Side)
6201,1744588354.1725495,End Get Vehicle Position (on manual_control.py Side)
6201,1744588354.172536,Start Get Vehicle Position (on record.py Side)
6201,1744588354.172548,End Get Vehicle Position (on record.py Side)
6200,1744588354.158076,Start of Saving Image: frame_6200.png
6200,1744588354.1736693,End of Saving Image: frame_6200.png
6201,1744588354.161956,Start of Frame 6201
6201,1744588354.1789389,End of Frame 6201
6202,1744588354.188844,Start Get Vehicle Position (on manual_control.py Side)
6202,1744588354.1888576,End Get Vehicle Position (on manual_control.py Side)
6202,1744588354.1888454,Start Get Vehicle Position (on record.py Side)
6202,1744588354.1888566,End Get Vehicle Position (on record.py Side)
6202,1744588354.17895,Start of Frame 6202
6202,1744588354.1948082,End of Frame 6202
6203,1744588354.2045395,Start Get Vehicle Position (on manual_control.py Side)
6203,1744588354.204554,End Get Vehicle Position (on manual_control.py Side)
6203,1744588354.2045407,Start Get Vehicle Position (on record.py Side)
6203,1744588354.2045527,End Get Vehicle Position (on record.py Side)
6201,1744588354.1887252,Start of Saving Image: frame_6201.png
6201,1744588354.2056816,End of Saving Image: frame_6201.png
6203,1744588354.1948178,Start of Frame 6203
6203,1744588354.2110314,End of Frame 6203
6204,1744588354.2205694,Start Get Vehicle Position (on manual_control.py Side)
6204,1744588354.2205842,End Get Vehicle Position (on manual_control.py Side)
6204,1744588354.2205706,Start Get Vehicle Position (on record.py Side)
6204,1744588354.220583,End Get Vehicle Position (on record.py Side)
6202,1744588354.2059157,Start of Saving Image: frame_6202.png
6202,1744588354.2217631,End of Saving Image: frame_6202.png
6204,1744588354.2110422,Start of Frame 6204
6204,1744588354.2292376,End of Frame 6204
6204,1744588354.236476,Start Get Vehicle Position (on manual_control.py Side)
6204,1744588354.2364905,End Get Vehicle Position (on manual_control.py Side)
6204,1744588354.236477,Start Get Vehicle Position (on record.py Side)
6204,1744588354.2364895,End Get Vehicle Position (on record.py Side)
6203,1744588354.2220998,Start of Saving Image: frame_6203.png
6203,1744588354.2377832,End of Saving Image: frame_6203.png
6204,1744588354.2380576,Start of Saving Image: frame_6204.png
6204,1744588354.2469952,End of Saving Image: frame_6204.png
6204,1744588354.229248,Start of Frame 6204
6204,1744588354.2482395,End of Frame 6204
6205,1744588354.252471,Start Get Vehicle Position (on manual_control.py Side)
6205,1744588354.2524838,End Get Vehicle Position (on manual_control.py Side)
6205,1744588354.252472,Start Get Vehicle Position (on record.py Side)
6205,1744588354.2524834,End Get Vehicle Position (on record.py Side)
6205,1744588354.2482438,Start of Frame 6205
6205,1744588354.258158,End of Frame 6205
6206,1744588354.2685432,Start Get Vehicle Position (on manual_control.py Side)
6206,1744588354.2685559,End Get Vehicle Position (on manual_control.py Side)
6206,1744588354.268544,Start Get Vehicle Position (on record.py Side)
6206,1744588354.268555,End Get Vehicle Position (on record.py Side)
6205,1744588354.2569156,Start of Saving Image: frame_6205.png
6205,1744588354.269643,End of Saving Image: frame_6205.png
6206,1744588354.2581632,Start of Frame 6206
6206,1744588354.2734585,End of Frame 6206
6207,1744588354.2848787,Start Get Vehicle Position (on manual_control.py Side)
6207,1744588354.2848933,End Get Vehicle Position (on manual_control.py Side)
6207,1744588354.28488,Start Get Vehicle Position (on record.py Side)
6207,1744588354.284892,End Get Vehicle Position (on record.py Side)
6207,1744588354.273464,Start of Frame 6207
6207,1744588354.291121,End of Frame 6207
6208,1744588354.3005545,Start Get Vehicle Position (on manual_control.py Side)
6208,1744588354.300575,End Get Vehicle Position (on manual_control.py Side)
6208,1744588354.3005557,Start Get Vehicle Position (on record.py Side)
6208,1744588354.3005736,End Get Vehicle Position (on record.py Side)
6206,1744588354.284754,Start of Saving Image: frame_6206.png
6206,1744588354.3025274,End of Saving Image: frame_6206.png
6207,1744588354.3028083,Start of Saving Image: frame_6207.png
6207,1744588354.3094907,End of Saving Image: frame_6207.png
6208,1744588354.2911294,Start of Frame 6208
6208,1744588354.3102367,End of Frame 6208
6208,1744588354.3165221,Start of KEYUP: w
6208,1744588354.3165278,End of KEYUP: w
6208,1744588354.3166115,Start Get Vehicle Position (on manual_control.py Side)
6208,1744588354.316631,End Get Vehicle Position (on manual_control.py Side)
6208,1744588354.316613,Start Get Vehicle Position (on record.py Side)
6208,1744588354.3166296,End Get Vehicle Position (on record.py Side)
5947,1744588354.099425,Start of Saving Image: frame_5947.png
5947,1744588354.3192754,End of Saving Image: frame_5947.png
6208,1744588354.3102448,Start of Frame 6208
6208,1744588354.3285675,End of Frame 6208
6209,1744588354.3324711,Start Get Vehicle Position (on manual_control.py Side)
6209,1744588354.332486,End Get Vehicle Position (on manual_control.py Side)
6209,1744588354.3324723,Start Get Vehicle Position (on record.py Side)
6209,1744588354.3324852,End Get Vehicle Position (on record.py Side)
6208,1744588354.318986,Start of Saving Image: frame_6208.png
6208,1744588354.3337276,End of Saving Image: frame_6208.png
6209,1744588354.3285747,Start of Frame 6209
6209,1744588354.338063,End of Frame 6209
6210,1744588354.348651,Start Get Vehicle Position (on manual_control.py Side)
6210,1744588354.3486772,End Get Vehicle Position (on manual_control.py Side)
6210,1744588354.3486521,Start Get Vehicle Position (on record.py Side)
6210,1744588354.3486757,End Get Vehicle Position (on record.py Side)
6210,1744588354.338073,Start of Frame 6210
6210,1744588354.354442,End of Frame 6210
6211,1744588354.364532,Start Get Vehicle Position (on manual_control.py Side)
6211,1744588354.3645463,End Get Vehicle Position (on manual_control.py Side)
6211,1744588354.364533,Start Get Vehicle Position (on record.py Side)
6211,1744588354.3645453,End Get Vehicle Position (on record.py Side)
6209,1744588354.3380334,Start of Saving Image: frame_6209.png
6209,1744588354.365686,End of Saving Image: frame_6209.png
6210,1744588354.3659616,Start of Saving Image: frame_6210.png
6210,1744588354.3728652,End of Saving Image: frame_6210.png
6211,1744588354.354448,Start of Frame 6211
6211,1744588354.373475,End of Frame 6211
6211,1744588354.381464,Start Get Vehicle Position (on manual_control.py Side)
6211,1744588354.381478,End Get Vehicle Position (on manual_control.py Side)
6211,1744588354.3814652,Start Get Vehicle Position (on record.py Side)
6211,1744588354.381477,End Get Vehicle Position (on record.py Side)
6211,1744588354.3734798,Start of Frame 6211
6211,1744588354.3866925,End of Frame 6211
6212,1744588354.397509,Start Get Vehicle Position (on manual_control.py Side)
6212,1744588354.397523,End Get Vehicle Position (on manual_control.py Side)
6212,1744588354.3975103,Start Get Vehicle Position (on record.py Side)
6212,1744588354.3975222,End Get Vehicle Position (on record.py Side)
6211,1744588354.3827438,Start of Saving Image: frame_6211.png
6211,1744588354.3986778,End of Saving Image: frame_6211.png
6212,1744588354.3867042,Start of Frame 6212
6212,1744588354.4030535,End of Frame 6212
6213,1744588354.4140425,Start Get Vehicle Position (on manual_control.py Side)
6213,1744588354.41406,End Get Vehicle Position (on manual_control.py Side)
6213,1744588354.414044,Start Get Vehicle Position (on record.py Side)
6213,1744588354.414059,End Get Vehicle Position (on record.py Side)
6213,1744588354.4030614,Start of Frame 6213
6213,1744588354.4219506,End of Frame 6213
6213,1744588354.4296038,Start Get Vehicle Position (on manual_control.py Side)
6213,1744588354.429625,End Get Vehicle Position (on manual_control.py Side)
6213,1744588354.4296057,Start Get Vehicle Position (on record.py Side)
6213,1744588354.4296238,End Get Vehicle Position (on record.py Side)
6212,1744588354.4137115,Start of Saving Image: frame_6212.png
6212,1744588354.4318726,End of Saving Image: frame_6212.png
6213,1744588354.4321065,Start of Saving Image: frame_6213.png
6213,1744588354.4385853,End of Saving Image: frame_6213.png
6213,1744588354.4219623,Start of Frame 6213
6213,1744588354.4421976,End of Frame 6213
6214,1744588354.4454513,Start Get Vehicle Position (on manual_control.py Side)
6214,1744588354.4454646,End Get Vehicle Position (on manual_control.py Side)
6214,1744588354.4454522,Start Get Vehicle Position (on record.py Side)
6214,1744588354.445464,End Get Vehicle Position (on record.py Side)
6214,1744588354.4422014,Start of Frame 6214
6214,1744588354.450352,End of Frame 6214
6215,1744588354.4615734,Start Get Vehicle Position (on manual_control.py Side)
6215,1744588354.4615848,End Get Vehicle Position (on manual_control.py Side)
6215,1744588354.461574,Start Get Vehicle Position (on record.py Side)
6215,1744588354.461584,End Get Vehicle Position (on record.py Side)
6215,1744588354.450359,Start of Frame 6215
6215,1744588354.4691143,End of Frame 6215
6216,1744588354.4776046,Start Get Vehicle Position (on manual_control.py Side)
6216,1744588354.477619,End Get Vehicle Position (on manual_control.py Side)
6216,1744588354.4776056,Start Get Vehicle Position (on record.py Side)
6216,1744588354.477618,End Get Vehicle Position (on record.py Side)
6214,1744588354.4618022,Start of Saving Image: frame_6214.png
6214,1744588354.47876,End of Saving Image: frame_6214.png
6216,1744588354.4691215,Start of Frame 6216
6216,1744588354.48592,End of Frame 6216
6216,1744588354.4935715,Start Get Vehicle Position (on manual_control.py Side)
6216,1744588354.493586,End Get Vehicle Position (on manual_control.py Side)
6216,1744588354.493573,Start Get Vehicle Position (on record.py Side)
6216,1744588354.493585,End Get Vehicle Position (on record.py Side)
6215,1744588354.4790678,Start of Saving Image: frame_6215.png
6215,1744588354.494668,End of Saving Image: frame_6215.png
6216,1744588354.499467,Start of Saving Image: frame_6216.png
6216,1744588354.5059743,End of Saving Image: frame_6216.png
6216,1744588354.4859269,Start of Frame 6216
6216,1744588354.507071,End of Frame 6216
6217,1744588354.5094683,Start Get Vehicle Position (on manual_control.py Side)
6217,1744588354.5094824,End Get Vehicle Position (on manual_control.py Side)
6217,1744588354.5094697,Start Get Vehicle Position (on record.py Side)
6217,1744588354.5094814,End Get Vehicle Position (on record.py Side)
6217,1744588354.5070765,Start of Frame 6217
6217,1744588354.515563,End of Frame 6217
6218,1744588354.5260396,Start Get Vehicle Position (on manual_control.py Side)
6218,1744588354.526059,End Get Vehicle Position (on manual_control.py Side)
6218,1744588354.526041,Start Get Vehicle Position (on record.py Side)
6218,1744588354.5260577,End Get Vehicle Position (on record.py Side)
6218,1744588354.515573,Start of Frame 6218
6218,1744588354.5339699,End of Frame 6218
6219,1744588354.5415413,Start of KEYUP: w
6219,1744588354.5415459,End of KEYUP: w
6219,1744588354.541602,Start Get Vehicle Position (on manual_control.py Side)
6219,1744588354.541615,End Get Vehicle Position (on manual_control.py Side)
6219,1744588354.541603,Start Get Vehicle Position (on record.py Side)
6219,1744588354.5416143,End Get Vehicle Position (on record.py Side)
6217,1744588354.525677,Start of Saving Image: frame_6217.png
6217,1744588354.542757,End of Saving Image: frame_6217.png
6219,1744588354.5339813,Start of Frame 6219
6219,1744588354.548665,End of Frame 6219
6220,1744588354.5575318,Start Get Vehicle Position (on manual_control.py Side)
6220,1744588354.5575452,End Get Vehicle Position (on manual_control.py Side)
6220,1744588354.557533,Start Get Vehicle Position (on record.py Side)
6220,1744588354.5575442,End Get Vehicle Position (on record.py Side)
5948,1744588354.3240736,Start of Saving Image: frame_5948.png
5948,1744588354.5586202,End of Saving Image: frame_5948.png
6218,1744588354.5430012,Start of Saving Image: frame_6218.png
6218,1744588354.558666,End of Saving Image: frame_6218.png
6220,1744588354.5486715,Start of Frame 6220
6220,1744588354.568403,End of Frame 6220
6220,1744588354.5734854,Start Get Vehicle Position (on manual_control.py Side)
6220,1744588354.5735106,End Get Vehicle Position (on manual_control.py Side)
6220,1744588354.573487,Start Get Vehicle Position (on record.py Side)
6220,1744588354.5735059,End Get Vehicle Position (on record.py Side)
6219,1744588354.5636501,Start of Saving Image: frame_6219.png
6219,1744588354.5755966,End of Saving Image: frame_6219.png
6220,1744588354.5761847,Start of Saving Image: frame_6220.png
6220,1744588354.5834057,End of Saving Image: frame_6220.png
6220,1744588354.568411,Start of Frame 6220
6220,1744588354.5886123,End of Frame 6220
6221,1744588354.589479,Start Get Vehicle Position (on manual_control.py Side)
6221,1744588354.5894992,End Get Vehicle Position (on manual_control.py Side)
6221,1744588354.5894804,Start Get Vehicle Position (on record.py Side)
6221,1744588354.5894976,End Get Vehicle Position (on record.py Side)
6221,1744588354.5886219,Start of Frame 6221
6221,1744588354.597635,End of Frame 6221
6222,1744588354.605457,Start Get Vehicle Position (on manual_control.py Side)
6222,1744588354.6054707,End Get Vehicle Position (on manual_control.py Side)
6222,1744588354.6054583,Start Get Vehicle Position (on record.py Side)
6222,1744588354.6054697,End Get Vehicle Position (on record.py Side)
6222,1744588354.5976472,Start of Frame 6222
6222,1744588354.6127477,End of Frame 6222
6223,1744588354.6215746,Start Get Vehicle Position (on manual_control.py Side)
6223,1744588354.6215906,End Get Vehicle Position (on manual_control.py Side)
6223,1744588354.6215758,Start Get Vehicle Position (on record.py Side)
6223,1744588354.6215887,End Get Vehicle Position (on record.py Side)
6221,1744588354.6057844,Start of Saving Image: frame_6221.png
6221,1744588354.622695,End of Saving Image: frame_6221.png
6223,1744588354.6127589,Start of Frame 6223
6223,1744588354.6265247,End of Frame 6223
6224,1744588354.6375408,Start Get Vehicle Position (on manual_control.py Side)
6224,1744588354.6375554,End Get Vehicle Position (on manual_control.py Side)
6224,1744588354.6375418,Start Get Vehicle Position (on record.py Side)
6224,1744588354.6375544,End Get Vehicle Position (on record.py Side)
6222,1744588354.622917,Start of Saving Image: frame_6222.png
6222,1744588354.6386714,End of Saving Image: frame_6222.png
6223,1744588354.6389036,Start of Saving Image: frame_6223.png
6223,1744588354.6456578,End of Saving Image: frame_6223.png
6224,1744588354.6265304,Start of Frame 6224
6224,1744588354.6462977,End of Frame 6224
6224,1744588354.6534424,Start Get Vehicle Position (on manual_control.py Side)
6224,1744588354.653456,End Get Vehicle Position (on manual_control.py Side)
6224,1744588354.6534433,Start Get Vehicle Position (on record.py Side)
6224,1744588354.6534545,End Get Vehicle Position (on record.py Side)
6224,1744588354.6463013,Start of Frame 6224
6224,1744588354.657932,End of Frame 6224
6225,1744588354.669489,Start Get Vehicle Position (on manual_control.py Side)
6225,1744588354.6695006,End Get Vehicle Position (on manual_control.py Side)
6225,1744588354.6694896,Start Get Vehicle Position (on record.py Side)
6225,1744588354.6694999,End Get Vehicle Position (on record.py Side)
6224,1744588354.6546853,Start of Saving Image: frame_6224.png
6224,1744588354.6706212,End of Saving Image: frame_6224.png
6225,1744588354.6579366,Start of Frame 6225
6225,1744588354.6740174,End of Frame 6225
6226,1744588354.685805,Start Get Vehicle Position (on manual_control.py Side)
6226,1744588354.6858177,End Get Vehicle Position (on manual_control.py Side)
6226,1744588354.685806,Start Get Vehicle Position (on record.py Side)
6226,1744588354.6858165,End Get Vehicle Position (on record.py Side)
6226,1744588354.6740227,Start of Frame 6226
6226,1744588354.6910462,End of Frame 6226
6227,1744588354.7015977,Start Get Vehicle Position (on manual_control.py Side)
6227,1744588354.7016127,End Get Vehicle Position (on manual_control.py Side)
6227,1744588354.701599,Start Get Vehicle Position (on record.py Side)
6227,1744588354.7016115,End Get Vehicle Position (on record.py Side)
6225,1744588354.6856756,Start of Saving Image: frame_6225.png
6225,1744588354.7028286,End of Saving Image: frame_6225.png
6227,1744588354.691054,Start of Frame 6227
6227,1744588354.7086298,End of Frame 6227
6227,1744588354.7176104,Start Get Vehicle Position (on manual_control.py Side)
6227,1744588354.7176259,End Get Vehicle Position (on manual_control.py Side)
6227,1744588354.7176116,Start Get Vehicle Position (on record.py Side)
6227,1744588354.7176244,End Get Vehicle Position (on record.py Side)
6226,1744588354.703129,Start of Saving Image: frame_6226.png
6226,1744588354.7187867,End of Saving Image: frame_6226.png
6227,1744588354.719084,Start of Saving Image: frame_6227.png
6227,1744588354.726279,End of Saving Image: frame_6227.png
6227,1744588354.7086403,Start of Frame 6227
6227,1744588354.72774,End of Frame 6227
6228,1744588354.733476,Start Get Vehicle Position (on manual_control.py Side)
6228,1744588354.7334936,End Get Vehicle Position (on manual_control.py Side)
6228,1744588354.733477,Start Get Vehicle Position (on record.py Side)
6228,1744588354.7334924,End Get Vehicle Position (on record.py Side)
6228,1744588354.7277446,Start of Frame 6228
6228,1744588354.7381003,End of Frame 6228
6229,1744588354.7499075,Start Get Vehicle Position (on manual_control.py Side)
6229,1744588354.749921,End Get Vehicle Position (on manual_control.py Side)
6229,1744588354.7499082,Start Get Vehicle Position (on record.py Side)
6229,1744588354.7499204,End Get Vehicle Position (on record.py Side)
6229,1744588354.7381103,Start of Frame 6229
6229,1744588354.7561326,End of Frame 6229
6230,1744588354.765559,Start Get Vehicle Position (on manual_control.py Side)
6230,1744588354.7655742,End Get Vehicle Position (on manual_control.py Side)
6230,1744588354.7655602,Start Get Vehicle Position (on record.py Side)
6230,1744588354.765573,End Get Vehicle Position (on record.py Side)
6228,1744588354.7497032,Start of Saving Image: frame_6228.png
6228,1744588354.7666588,End of Saving Image: frame_6228.png
6230,1744588354.75614,Start of Frame 6230
6230,1744588354.772392,End of Frame 6230
6231,1744588354.7815118,Start of KEYUP: w
6231,1744588354.7815163,End of KEYUP: w
6231,1744588354.7815769,Start Get Vehicle Position (on manual_control.py Side)
6231,1744588354.7815926,End Get Vehicle Position (on manual_control.py Side)
6231,1744588354.7815783,Start Get Vehicle Position (on record.py Side)
6231,1744588354.7815917,End Get Vehicle Position (on record.py Side)
5949,1744588354.5633204,Start of Saving Image: frame_5949.png
5949,1744588354.7826817,End of Saving Image: frame_5949.png
6229,1744588354.7668917,Start of Saving Image: frame_6229.png
6229,1744588354.787454,End of Saving Image: frame_6229.png
6231,1744588354.772403,Start of Frame 6231
6231,1744588354.7938132,End of Frame 6231
6231,1744588354.7974508,Start Get Vehicle Position (on manual_control.py Side)
6231,1744588354.7974663,End Get Vehicle Position (on manual_control.py Side)
6231,1744588354.7974515,Start Get Vehicle Position (on record.py Side)
6231,1744588354.7974653,End Get Vehicle Position (on record.py Side)
6230,1744588354.787803,Start of Saving Image: frame_6230.png
6230,1744588354.798696,End of Saving Image: frame_6230.png
6231,1744588354.7938209,Start of Frame 6231
6231,1744588354.8042707,End of Frame 6231
6232,1744588354.8136346,Start Get Vehicle Position (on manual_control.py Side)
6232,1744588354.8136623,End Get Vehicle Position (on manual_control.py Side)
6232,1744588354.8136358,Start Get Vehicle Position (on record.py Side)
6232,1744588354.813652,End Get Vehicle Position (on record.py Side)
6232,1744588354.8042798,Start of Frame 6232
6232,1744588354.8222878,End of Frame 6232
6233,1744588354.8295271,Start Get Vehicle Position (on manual_control.py Side)
6233,1744588354.8295455,End Get Vehicle Position (on manual_control.py Side)
6233,1744588354.8295286,Start Get Vehicle Position (on record.py Side)
6233,1744588354.8295443,End Get Vehicle Position (on record.py Side)
6231,1744588354.8042374,Start of Saving Image: frame_6231.png
6231,1744588354.8311944,End of Saving Image: frame_6231.png
6233,1744588354.8223002,Start of Frame 6233
6233,1744588354.8364635,End of Frame 6233
6234,1744588354.8455844,Start Get Vehicle Position (on manual_control.py Side)
6234,1744588354.845603,End Get Vehicle Position (on manual_control.py Side)
6234,1744588354.8455858,Start Get Vehicle Position (on record.py Side)
6234,1744588354.8456018,End Get Vehicle Position (on record.py Side)
6232,1744588354.8314133,Start of Saving Image: frame_6232.png
6232,1744588354.8457637,End of Saving Image: frame_6232.png
6233,1744588354.8477578,Start of Saving Image: frame_6233.png
6233,1744588354.8542814,End of Saving Image: frame_6233.png
6234,1744588354.8364744,Start of Frame 6234
6234,1744588354.8555367,End of Frame 6234
6234,1744588354.8614526,Start Get Vehicle Position (on manual_control.py Side)
6234,1744588354.8614657,End Get Vehicle Position (on manual_control.py Side)
6234,1744588354.8614535,Start Get Vehicle Position (on record.py Side)
6234,1744588354.8614647,End Get Vehicle Position (on record.py Side)
6234,1744588354.8555434,Start of Frame 6234
6234,1744588354.8668807,End of Frame 6234
6235,1744588354.8775053,Start Get Vehicle Position (on manual_control.py Side)
6235,1744588354.8775208,End Get Vehicle Position (on manual_control.py Side)
6235,1744588354.8775063,Start Get Vehicle Position (on record.py Side)
6235,1744588354.8775194,End Get Vehicle Position (on record.py Side)
6234,1744588354.8640072,Start of Saving Image: frame_6234.png
6234,1744588354.8786237,End of Saving Image: frame_6234.png
6235,1744588354.866892,Start of Frame 6235
6235,1744588354.882764,End of Frame 6235
6236,1744588354.8938768,Start Get Vehicle Position (on manual_control.py Side)
6236,1744588354.8938892,End Get Vehicle Position (on manual_control.py Side)
6236,1744588354.8938775,Start Get Vehicle Position (on record.py Side)
6236,1744588354.8938882,End Get Vehicle Position (on record.py Side)
6236,1744588354.8827715,Start of Frame 6236
6236,1744588354.8997338,End of Frame 6236
6237,1744588354.9095252,Start Get Vehicle Position (on manual_control.py Side)
6237,1744588354.909542,End Get Vehicle Position (on manual_control.py Side)
6237,1744588354.9095268,Start Get Vehicle Position (on record.py Side)
6237,1744588354.90954,End Get Vehicle Position (on record.py Side)
6235,1744588354.8937845,Start of Saving Image: frame_6235.png
6235,1744588354.9106362,End of Saving Image: frame_6235.png
6237,1744588354.8997452,Start of Frame 6237
6237,1744588354.916038,End of Frame 6237
6238,1744588354.9255562,Start Get Vehicle Position (on manual_control.py Side)
6238,1744588354.9255702,End Get Vehicle Position (on manual_control.py Side)
6238,1744588354.9255571,Start Get Vehicle Position (on record.py Side)
6238,1744588354.9255695,End Get Vehicle Position (on record.py Side)
6236,1744588354.9109275,Start of Saving Image: frame_6236.png
6236,1744588354.9267445,End of Saving Image: frame_6236.png
6237,1744588354.9270256,Start of Saving Image: frame_6237.png
6237,1744588354.935202,End of Saving Image: frame_6237.png
6238,1744588354.9160445,Start of Frame 6238
6238,1744588354.9352775,End of Frame 6238
6238,1744588354.9414558,Start Get Vehicle Position (on manual_control.py Side)
6238,1744588354.9414692,End Get Vehicle Position (on manual_control.py Side)
6238,1744588354.9414566,Start Get Vehicle Position (on record.py Side)
6238,1744588354.9414682,End Get Vehicle Position (on record.py Side)
6238,1744588354.935281,Start of Frame 6238
6238,1744588354.9466598,End of Frame 6238
6239,1744588354.9575114,Start Get Vehicle Position (on manual_control.py Side)
6239,1744588354.9575276,End Get Vehicle Position (on manual_control.py Side)
6239,1744588354.9575126,Start Get Vehicle Position (on record.py Side)
6239,1744588354.9575267,End Get Vehicle Position (on record.py Side)
6238,1744588354.9441853,Start of Saving Image: frame_6238.png
6238,1744588354.9587727,End of Saving Image: frame_6238.png
6239,1744588354.9466655,Start of Frame 6239
6239,1744588354.9633791,End of Frame 6239
6240,1744588354.9728842,Start Get Vehicle Position (on manual_control.py Side)
6240,1744588354.9729009,End Get Vehicle Position (on manual_control.py Side)
6240,1744588354.9728851,Start Get Vehicle Position (on record.py Side)
6240,1744588354.9729,End Get Vehicle Position (on record.py Side)
6240,1744588354.963384,Start of Frame 6240
6240,1744588354.9800053,End of Frame 6240
6240,1744588354.98852,Start Get Vehicle Position (on manual_control.py Side)
6240,1744588354.9885347,End Get Vehicle Position (on manual_control.py Side)
6240,1744588354.9885209,Start Get Vehicle Position (on record.py Side)
6240,1744588354.9885337,End Get Vehicle Position (on record.py Side)
6239,1744588354.972702,Start of Saving Image: frame_6239.png
6239,1744588354.989724,End of Saving Image: frame_6239.png
6240,1744588354.9900262,Start of Saving Image: frame_6240.png
6240,1744588354.999022,End of Saving Image: frame_6240.png
6240,1744588354.980012,Start of Frame 6240
6240,1744588355.0016296,End of Frame 6240
6241,1744588355.0044641,Start Get Vehicle Position (on manual_control.py Side)
6241,1744588355.0044785,End Get Vehicle Position (on manual_control.py Side)
6241,1744588355.004465,Start Get Vehicle Position (on record.py Side)
6241,1744588355.0044775,End Get Vehicle Position (on record.py Side)
6241,1744588355.0016358,Start of Frame 6241
6241,1744588355.0094435,End of Frame 6241
6242,1744588355.0210204,Start Get Vehicle Position (on manual_control.py Side)
6242,1744588355.0210438,End Get Vehicle Position (on manual_control.py Side)
6242,1744588355.0210218,Start Get Vehicle Position (on record.py Side)
6242,1744588355.021042,End Get Vehicle Position (on record.py Side)
5950,1744588354.787381,Start of Saving Image: frame_5950.png
5950,1744588355.0230534,End of Saving Image: frame_5950.png
6242,1744588355.009451,Start of Frame 6242
6242,1744588355.0298965,End of Frame 6242
6243,1744588355.0366774,Start of KEYUP: w
6243,1744588355.0366826,End of KEYUP: w
6243,1744588355.0367348,Start Get Vehicle Position (on manual_control.py Side)
6243,1744588355.0367475,End Get Vehicle Position (on manual_control.py Side)
6243,1744588355.036736,Start Get Vehicle Position (on record.py Side)
6243,1744588355.0367467,End Get Vehicle Position (on record.py Side)
6241,1744588355.0207043,Start of Saving Image: frame_6241.png
6241,1744588355.0379782,End of Saving Image: frame_6241.png
6243,1744588355.0299056,Start of Frame 6243
6243,1744588355.0425482,End of Frame 6243
6244,1744588355.0524848,Start Get Vehicle Position (on manual_control.py Side)
6244,1744588355.0525076,End Get Vehicle Position (on manual_control.py Side)
6244,1744588355.0524867,Start Get Vehicle Position (on record.py Side)
6244,1744588355.0525062,End Get Vehicle Position (on record.py Side)
6242,1744588355.0383494,Start of Saving Image: frame_6242.png
6242,1744588355.0547104,End of Saving Image: frame_6242.png
6244,1744588355.0425599,Start of Frame 6244
6244,1744588355.060319,End of Frame 6244
6244,1744588355.0684705,Start Get Vehicle Position (on manual_control.py Side)
6244,1744588355.068488,End Get Vehicle Position (on manual_control.py Side)
6244,1744588355.0684721,Start Get Vehicle Position (on record.py Side)
6244,1744588355.068487,End Get Vehicle Position (on record.py Side)
6243,1744588355.055032,Start of Saving Image: frame_6243.png
6243,1744588355.0698824,End of Saving Image: frame_6243.png
6244,1744588355.070198,Start of Saving Image: frame_6244.png
6244,1744588355.0791805,End of Saving Image: frame_6244.png
6244,1744588355.060329,Start of Frame 6244
6244,1744588355.0794768,End of Frame 6244
6245,1744588355.0844896,Start Get Vehicle Position (on manual_control.py Side)
6245,1744588355.084509,End Get Vehicle Position (on manual_control.py Side)
6245,1744588355.0844908,Start Get Vehicle Position (on record.py Side)
6245,1744588355.084508,End Get Vehicle Position (on record.py Side)
6245,1744588355.090347,Start of Saving Image: frame_6245.png
6245,1744588355.097196,End of Saving Image: frame_6245.png
6245,1744588355.0794845,Start of Frame 6245
6245,1744588355.0979931,End of Frame 6245
6246,1744588355.1004531,Start Get Vehicle Position (on manual_control.py Side)
6246,1744588355.100467,End Get Vehicle Position (on manual_control.py Side)
6246,1744588355.100454,Start Get Vehicle Position (on record.py Side)
6246,1744588355.1004663,End Get Vehicle Position (on record.py Side)
6246,1744588355.097998,Start of Frame 6246
6246,1744588355.1051786,End of Frame 6246
6247,1744588355.116895,Start Get Vehicle Position (on manual_control.py Side)
6247,1744588355.1169064,End Get Vehicle Position (on manual_control.py Side)
6247,1744588355.116896,Start Get Vehicle Position (on record.py Side)
6247,1744588355.1169057,End Get Vehicle Position (on record.py Side)
6247,1744588355.1051853,Start of Frame 6247
6247,1744588355.124387,End of Frame 6247
6248,1744588355.1326935,Start Get Vehicle Position (on manual_control.py Side)
6248,1744588355.132709,End Get Vehicle Position (on manual_control.py Side)
6248,1744588355.1326947,Start Get Vehicle Position (on record.py Side)
6248,1744588355.1327074,End Get Vehicle Position (on record.py Side)
6246,1744588355.1166093,Start of Saving Image: frame_6246.png
6246,1744588355.1327767,End of Saving Image: frame_6246.png
6248,1744588355.124395,Start of Frame 6248
6248,1744588355.1407337,End of Frame 6248
6248,1744588355.1486053,Start Get Vehicle Position (on manual_control.py Side)
6248,1744588355.14862,End Get Vehicle Position (on manual_control.py Side)
6248,1744588355.1486065,Start Get Vehicle Position (on record.py Side)
6248,1744588355.1486187,End Get Vehicle Position (on record.py Side)
6247,1744588355.1330163,Start of Saving Image: frame_6247.png
6247,1744588355.1487982,End of Saving Image: frame_6247.png
6248,1744588355.1502643,Start of Saving Image: frame_6248.png
6248,1744588355.1593843,End of Saving Image: frame_6248.png
6248,1744588355.140741,Start of Frame 6248
6248,1744588355.1619017,End of Frame 6248
6249,1744588355.1645415,Start Get Vehicle Position (on manual_control.py Side)
6249,1744588355.1645606,End Get Vehicle Position (on manual_control.py Side)
6249,1744588355.1645427,Start Get Vehicle Position (on record.py Side)
6249,1744588355.1645596,End Get Vehicle Position (on record.py Side)
6249,1744588355.1619093,Start of Frame 6249
6249,1744588355.1719923,End of Frame 6249
6250,1744588355.180632,Start Get Vehicle Position (on manual_control.py Side)
6250,1744588355.1806445,End Get Vehicle Position (on manual_control.py Side)
6250,1744588355.1806328,Start Get Vehicle Position (on record.py Side)
6250,1744588355.1806436,End Get Vehicle Position (on record.py Side)
6249,1744588355.1718693,Start of Saving Image: frame_6249.png
6249,1744588355.1881075,End of Saving Image: frame_6249.png
6250,1744588355.172,Start of Frame 6250
6250,1744588355.1882453,End of Frame 6250
6251,1744588355.1969917,Start Get Vehicle Position (on manual_control.py Side)
6251,1744588355.1970048,End Get Vehicle Position (on manual_control.py Side)
6251,1744588355.1969924,Start Get Vehicle Position (on record.py Side)
6251,1744588355.1970036,End Get Vehicle Position (on record.py Side)
6250,1744588355.1967702,Start of Saving Image: frame_6250.png
6250,1744588355.2046835,End of Saving Image: frame_6250.png
6251,1744588355.1882498,Start of Frame 6251
6251,1744588355.2062283,End of Frame 6251
6251,1744588355.2125525,Start Get Vehicle Position (on manual_control.py Side)
6251,1744588355.212572,End Get Vehicle Position (on manual_control.py Side)
6251,1744588355.2125535,Start Get Vehicle Position (on record.py Side)
6251,1744588355.212571,End Get Vehicle Position (on record.py Side)
6251,1744588355.2062361,Start of Frame 6251
6251,1744588355.219907,End of Frame 6251
6252,1744588355.2285528,Start Get Vehicle Position (on manual_control.py Side)
6252,1744588355.2285721,End Get Vehicle Position (on manual_control.py Side)
6252,1744588355.2285542,Start Get Vehicle Position (on record.py Side)
6252,1744588355.2285712,End Get Vehicle Position (on record.py Side)
6251,1744588355.2148926,Start of Saving Image: frame_6251.png
6251,1744588355.2308931,End of Saving Image: frame_6251.png
5951,1744588355.0367792,Start of Saving Image: frame_5951.png
5951,1744588355.2309227,End of Saving Image: frame_5951.png
6252,1744588355.219919,Start of Frame 6252
6252,1744588355.2378004,End of Frame 6252
6253,1744588355.2449043,Start Get Vehicle Position (on manual_control.py Side)
6253,1744588355.2449236,End Get Vehicle Position (on manual_control.py Side)
6253,1744588355.2449057,Start Get Vehicle Position (on record.py Side)
6253,1744588355.2449224,End Get Vehicle Position (on record.py Side)
6253,1744588355.237809,Start of Frame 6253
6253,1744588355.2525208,End of Frame 6253
6253,1744588355.2605615,Start Get Vehicle Position (on manual_control.py Side)
6253,1744588355.2605817,End Get Vehicle Position (on manual_control.py Side)
6253,1744588355.2605627,Start Get Vehicle Position (on record.py Side)
6253,1744588355.26058,End Get Vehicle Position (on record.py Side)
6252,1744588355.244669,Start of Saving Image: frame_6252.png
6252,1744588355.2626848,End of Saving Image: frame_6252.png
6253,1744588355.2629845,Start of Saving Image: frame_6253.png
6253,1744588355.272617,End of Saving Image: frame_6253.png
6253,1744588355.252532,Start of Frame 6253
6253,1744588355.274264,End of Frame 6253
6254,1744588355.2765253,Start Get Vehicle Position (on manual_control.py Side)
6254,1744588355.2765434,End Get Vehicle Position (on manual_control.py Side)
6254,1744588355.276527,Start Get Vehicle Position (on record.py Side)
6254,1744588355.2765424,End Get Vehicle Position (on record.py Side)
6254,1744588355.2742708,Start of Frame 6254
6254,1744588355.282946,End of Frame 6254
6255,1744588355.2930288,Start Get Vehicle Position (on manual_control.py Side)
6255,1744588355.2930434,End Get Vehicle Position (on manual_control.py Side)
6255,1744588355.2930303,Start Get Vehicle Position (on record.py Side)
6255,1744588355.2930424,End Get Vehicle Position (on record.py Side)
6255,1744588355.2829564,Start of Frame 6255
6255,1744588355.2987294,End of Frame 6255
6256,1744588355.3086228,Start Get Vehicle Position (on manual_control.py Side)
6256,1744588355.3086402,End Get Vehicle Position (on manual_control.py Side)
6256,1744588355.308624,Start Get Vehicle Position (on record.py Side)
6256,1744588355.308639,End Get Vehicle Position (on record.py Side)
6254,1744588355.2926714,Start of Saving Image: frame_6254.png
6254,1744588355.3105347,End of Saving Image: frame_6254.png
6256,1744588355.2987392,Start of Frame 6256
6256,1744588355.3164485,End of Frame 6256
6256,1744588355.32454,Start Get Vehicle Position (on manual_control.py Side)
6256,1744588355.3245542,End Get Vehicle Position (on manual_control.py Side)
6256,1744588355.3245409,Start Get Vehicle Position (on record.py Side)
6256,1744588355.3245533,End Get Vehicle Position (on record.py Side)
6255,1744588355.3108413,Start of Saving Image: frame_6255.png
6255,1744588355.3257475,End of Saving Image: frame_6255.png
6256,1744588355.3261049,Start of Saving Image: frame_6256.png
6256,1744588355.3346078,End of Saving Image: frame_6256.png
6256,1744588355.3164568,Start of Frame 6256
6256,1744588355.3369157,End of Frame 6256
6257,1744588355.3405488,Start Get Vehicle Position (on manual_control.py Side)
6257,1744588355.3405683,End Get Vehicle Position (on manual_control.py Side)
6257,1744588355.3405502,Start Get Vehicle Position (on record.py Side)
6257,1744588355.340567,End Get Vehicle Position (on record.py Side)
6257,1744588355.336924,Start of Frame 6257
6257,1744588355.347789,End of Frame 6257
6258,1744588355.3565018,Start Get Vehicle Position (on manual_control.py Side)
6258,1744588355.3565156,End Get Vehicle Position (on manual_control.py Side)
6258,1744588355.356503,Start Get Vehicle Position (on record.py Side)
6258,1744588355.3565145,End Get Vehicle Position (on record.py Side)
6257,1744588355.3452575,Start of Saving Image: frame_6257.png
6257,1744588355.3577907,End of Saving Image: frame_6257.png
6258,1744588355.3477979,Start of Frame 6258
6258,1744588355.363266,End of Frame 6258
6259,1744588355.3728054,Start Get Vehicle Position (on manual_control.py Side)
6259,1744588355.3728228,End Get Vehicle Position (on manual_control.py Side)
6259,1744588355.372807,Start Get Vehicle Position (on record.py Side)
6259,1744588355.3728216,End Get Vehicle Position (on record.py Side)
6259,1744588355.3632767,Start of Frame 6259
6259,1744588355.382405,End of Frame 6259
6260,1744588355.3895793,Start Get Vehicle Position (on manual_control.py Side)
6260,1744588355.3895938,End Get Vehicle Position (on manual_control.py Side)
6260,1744588355.3895802,Start Get Vehicle Position (on record.py Side)
6260,1744588355.3895926,End Get Vehicle Position (on record.py Side)
6258,1744588355.3726,Start of Saving Image: frame_6258.png
6258,1744588355.3908567,End of Saving Image: frame_6258.png
6260,1744588355.382417,Start of Frame 6260
6260,1744588355.3979685,End of Frame 6260
6260,1744588355.4056494,Start Get Vehicle Position (on manual_control.py Side)
6260,1744588355.4056668,End Get Vehicle Position (on manual_control.py Side)
6260,1744588355.4056506,Start Get Vehicle Position (on record.py Side)
6260,1744588355.4056659,End Get Vehicle Position (on record.py Side)
6259,1744588355.3911748,Start of Saving Image: frame_6259.png
6259,1744588355.4069073,End of Saving Image: frame_6259.png
6260,1744588355.397976,Start of Frame 6260
6260,1744588355.4166048,End of Frame 6260
6261,1744588355.421493,Start Get Vehicle Position (on manual_control.py Side)
6261,1744588355.4215062,End Get Vehicle Position (on manual_control.py Side)
6261,1744588355.421494,Start Get Vehicle Position (on record.py Side)
6261,1744588355.421505,End Get Vehicle Position (on record.py Side)
6260,1744588355.4103138,Start of Saving Image: frame_6260.png
6260,1744588355.4225845,End of Saving Image: frame_6260.png
6261,1744588355.4166102,Start of Frame 6261
6261,1744588355.4270287,End of Frame 6261
6262,1744588355.4378245,Start Get Vehicle Position (on manual_control.py Side)
6262,1744588355.437837,End Get Vehicle Position (on manual_control.py Side)
6262,1744588355.4378254,Start Get Vehicle Position (on record.py Side)
6262,1744588355.4378357,End Get Vehicle Position (on record.py Side)
6262,1744588355.427037,Start of Frame 6262
6262,1744588355.44264,End of Frame 6262
6263,1744588355.4536574,Start Get Vehicle Position (on manual_control.py Side)
6263,1744588355.4536715,End Get Vehicle Position (on manual_control.py Side)
6263,1744588355.4536583,Start Get Vehicle Position (on record.py Side)
6263,1744588355.4536705,End Get Vehicle Position (on record.py Side)
6261,1744588355.4376745,Start of Saving Image: frame_6261.png
6261,1744588355.454768,End of Saving Image: frame_6261.png
6263,1744588355.4426465,Start of Frame 6263
6263,1744588355.4584181,End of Frame 6263
6264,1744588355.4695783,Start Get Vehicle Position (on manual_control.py Side)
6264,1744588355.4695933,End Get Vehicle Position (on manual_control.py Side)
6264,1744588355.4695792,Start Get Vehicle Position (on record.py Side)
6264,1744588355.4695916,End Get Vehicle Position (on record.py Side)
5952,1744588355.2371352,Start of Saving Image: frame_5952.png
5952,1744588355.470679,End of Saving Image: frame_5952.png
6262,1744588355.4552128,Start of Saving Image: frame_6262.png
6262,1744588355.4758806,End of Saving Image: frame_6262.png
6264,1744588355.458426,Start of Frame 6264
6264,1744588355.4772148,End of Frame 6264
6264,1744588355.4855163,Start Get Vehicle Position (on manual_control.py Side)
6264,1744588355.4855282,End Get Vehicle Position (on manual_control.py Side)
6264,1744588355.485517,Start Get Vehicle Position (on record.py Side)
6264,1744588355.4855275,End Get Vehicle Position (on record.py Side)
6263,1744588355.4762921,Start of Saving Image: frame_6263.png
6263,1744588355.4867792,End of Saving Image: frame_6263.png
6264,1744588355.4870522,Start of Saving Image: frame_6264.png
6264,1744588355.4938958,End of Saving Image: frame_6264.png
6264,1744588355.4772193,Start of Frame 6264
6264,1744588355.4984937,End of Frame 6264
6265,1744588355.5015001,Start Get Vehicle Position (on manual_control.py Side)
6265,1744588355.5015142,End Get Vehicle Position (on manual_control.py Side)
6265,1744588355.501501,Start Get Vehicle Position (on record.py Side)
6265,1744588355.5015132,End Get Vehicle Position (on record.py Side)
6265,1744588355.4984999,Start of Frame 6265
6265,1744588355.5069737,End of Frame 6265
6266,1744588355.5177975,Start Get Vehicle Position (on manual_control.py Side)
6266,1744588355.517811,End Get Vehicle Position (on manual_control.py Side)
6266,1744588355.5177984,Start Get Vehicle Position (on record.py Side)
6266,1744588355.5178099,End Get Vehicle Position (on record.py Side)
6266,1744588355.5069833,Start of Frame 6266
6266,1744588355.5249908,End of Frame 6266
6267,1744588355.5336258,Start Get Vehicle Position (on manual_control.py Side)
6267,1744588355.5336463,End Get Vehicle Position (on manual_control.py Side)
6267,1744588355.5336275,Start Get Vehicle Position (on record.py Side)
6267,1744588355.533645,End Get Vehicle Position (on record.py Side)
6265,1744588355.517648,Start of Saving Image: frame_6265.png
6265,1744588355.535743,End of Saving Image: frame_6265.png
6267,1744588355.5249996,Start of Frame 6267
6267,1744588355.5412788,End of Frame 6267
6268,1744588355.549518,Start Get Vehicle Position (on manual_control.py Side)
6268,1744588355.549538,End Get Vehicle Position (on manual_control.py Side)
6268,1744588355.5495195,Start Get Vehicle Position (on record.py Side)
6268,1744588355.5495367,End Get Vehicle Position (on record.py Side)
6266,1744588355.536143,Start of Saving Image: frame_6266.png
6266,1744588355.551323,End of Saving Image: frame_6266.png
6267,1744588355.5516353,Start of Saving Image: frame_6267.png
6267,1744588355.5586195,End of Saving Image: frame_6267.png
6268,1744588355.5412903,Start of Frame 6268
6268,1744588355.5606384,End of Frame 6268
6268,1744588355.5655568,Start Get Vehicle Position (on manual_control.py Side)
6268,1744588355.565576,End Get Vehicle Position (on manual_control.py Side)
6268,1744588355.565558,Start Get Vehicle Position (on record.py Side)
6268,1744588355.5655751,End Get Vehicle Position (on record.py Side)
6268,1744588355.5606463,Start of Frame 6268
6268,1744588355.5724206,End of Frame 6268
6269,1744588355.5815606,Start Get Vehicle Position (on manual_control.py Side)
6269,1744588355.5815747,End Get Vehicle Position (on manual_control.py Side)
6269,1744588355.5815616,Start Get Vehicle Position (on record.py Side)
6269,1744588355.5815735,End Get Vehicle Position (on record.py Side)
6268,1744588355.5692089,Start of Saving Image: frame_6268.png
6268,1744588355.5827026,End of Saving Image: frame_6268.png
6269,1744588355.5724301,Start of Frame 6269
6269,1744588355.5872257,End of Frame 6269
6270,1744588355.5979671,Start Get Vehicle Position (on manual_control.py Side)
6270,1744588355.59798,End Get Vehicle Position (on manual_control.py Side)
6270,1744588355.5979679,Start Get Vehicle Position (on record.py Side)
6270,1744588355.5979786,End Get Vehicle Position (on record.py Side)
6270,1744588355.587232,Start of Frame 6270
6270,1744588355.6041288,End of Frame 6270
6271,1744588355.6135385,Start Get Vehicle Position (on manual_control.py Side)
6271,1744588355.613553,End Get Vehicle Position (on manual_control.py Side)
6271,1744588355.61354,Start Get Vehicle Position (on record.py Side)
6271,1744588355.6135519,End Get Vehicle Position (on record.py Side)
6269,1744588355.5976064,Start of Saving Image: frame_6269.png
6269,1744588355.6148193,End of Saving Image: frame_6269.png
6271,1744588355.6041389,Start of Frame 6271
6271,1744588355.6207516,End of Frame 6271
6271,1744588355.6295779,Start Get Vehicle Position (on manual_control.py Side)
6271,1744588355.6295936,End Get Vehicle Position (on manual_control.py Side)
6271,1744588355.629579,Start Get Vehicle Position (on record.py Side)
6271,1744588355.6295927,End Get Vehicle Position (on record.py Side)
6270,1744588355.6151366,Start of Saving Image: frame_6270.png
6270,1744588355.6309087,End of Saving Image: frame_6270.png
6271,1744588355.633623,Start of Saving Image: frame_6271.png
6271,1744588355.6414108,End of Saving Image: frame_6271.png
6271,1744588355.6207583,Start of Frame 6271
6271,1744588355.6424255,End of Frame 6271
6272,1744588355.6454632,Start Get Vehicle Position (on manual_control.py Side)
6272,1744588355.6454775,End Get Vehicle Position (on manual_control.py Side)
6272,1744588355.6454644,Start Get Vehicle Position (on record.py Side)
6272,1744588355.645477,End Get Vehicle Position (on record.py Side)
6272,1744588355.64243,Start of Frame 6272
6272,1744588355.6501765,End of Frame 6272
6273,1744588355.6618445,Start Get Vehicle Position (on manual_control.py Side)
6273,1744588355.6618578,End Get Vehicle Position (on manual_control.py Side)
6273,1744588355.6618454,Start Get Vehicle Position (on record.py Side)
6273,1744588355.6618571,End Get Vehicle Position (on record.py Side)
6273,1744588355.6501815,Start of Frame 6273
6273,1744588355.6681104,End of Frame 6273
6274,1744588355.6776187,Start Get Vehicle Position (on manual_control.py Side)
6274,1744588355.677633,End Get Vehicle Position (on manual_control.py Side)
6274,1744588355.6776197,Start Get Vehicle Position (on record.py Side)
6274,1744588355.6776319,End Get Vehicle Position (on record.py Side)
6272,1744588355.6616893,Start of Saving Image: frame_6272.png
6272,1744588355.6787133,End of Saving Image: frame_6272.png
6274,1744588355.668118,Start of Frame 6274
6274,1744588355.6832187,End of Frame 6274
6275,1744588355.6937711,Start Get Vehicle Position (on manual_control.py Side)
6275,1744588355.6937842,End Get Vehicle Position (on manual_control.py Side)
6275,1744588355.6937723,Start Get Vehicle Position (on record.py Side)
6275,1744588355.6937833,End Get Vehicle Position (on record.py Side)
6273,1744588355.6789742,Start of Saving Image: frame_6273.png
6273,1744588355.6949353,End of Saving Image: frame_6273.png
5953,1744588355.475456,Start of Saving Image: frame_5953.png
5953,1744588355.6954863,End of Saving Image: frame_5953.png
6275,1744588355.683225,Start of Frame 6275
6275,1744588355.7053654,End of Frame 6275
6275,1744588355.7095153,Start Get Vehicle Position (on manual_control.py Side)
6275,1744588355.7095346,End Get Vehicle Position (on manual_control.py Side)
6275,1744588355.709517,Start Get Vehicle Position (on record.py Side)
6275,1744588355.7095337,End Get Vehicle Position (on record.py Side)
6274,1744588355.6951728,Start of Saving Image: frame_6274.png
6274,1744588355.7115407,End of Saving Image: frame_6274.png
6275,1744588355.7053745,Start of Frame 6275
6275,1744588355.7174635,End of Frame 6275
6276,1744588355.725555,Start Get Vehicle Position (on manual_control.py Side)
6276,1744588355.7255692,End Get Vehicle Position (on manual_control.py Side)
6276,1744588355.7255561,Start Get Vehicle Position (on record.py Side)
6276,1744588355.7255683,End Get Vehicle Position (on record.py Side)
6275,1744588355.7140827,Start of Saving Image: frame_6275.png
6275,1744588355.726582,End of Saving Image: frame_6275.png
6276,1744588355.7174726,Start of Frame 6276
6276,1744588355.7330964,End of Frame 6276
6277,1744588355.7414575,Start Get Vehicle Position (on manual_control.py Side)
6277,1744588355.7414722,End Get Vehicle Position (on manual_control.py Side)
6277,1744588355.7414584,Start Get Vehicle Position (on record.py Side)
6277,1744588355.7414713,End Get Vehicle Position (on record.py Side)
6277,1744588355.7331045,Start of Frame 6277
6277,1744588355.748308,End of Frame 6277
6277,1744588355.7575665,Start Get Vehicle Position (on manual_control.py Side)
6277,1744588355.7575822,End Get Vehicle Position (on manual_control.py Side)
6277,1744588355.7575676,Start Get Vehicle Position (on record.py Side)
6277,1744588355.7575808,End Get Vehicle Position (on record.py Side)
6276,1744588355.7418091,Start of Saving Image: frame_6276.png
6276,1744588355.7587647,End of Saving Image: frame_6276.png
6277,1744588355.7590153,Start of Saving Image: frame_6277.png
6277,1744588355.7655513,End of Saving Image: frame_6277.png
6277,1744588355.748314,Start of Frame 6277
6277,1744588355.7687893,End of Frame 6277
6278,1744588355.7734413,Start Get Vehicle Position (on manual_control.py Side)
6278,1744588355.7734542,End Get Vehicle Position (on manual_control.py Side)
6278,1744588355.7734425,Start Get Vehicle Position (on record.py Side)
6278,1744588355.773453,End Get Vehicle Position (on record.py Side)
6278,1744588355.7687953,Start of Frame 6278
6278,1744588355.7783144,End of Frame 6278
6279,1744588355.7895613,Start Get Vehicle Position (on manual_control.py Side)
6279,1744588355.7895777,End Get Vehicle Position (on manual_control.py Side)
6279,1744588355.7895625,Start Get Vehicle Position (on record.py Side)
6279,1744588355.7895765,End Get Vehicle Position (on record.py Side)
6278,1744588355.777346,Start of Saving Image: frame_6278.png
6278,1744588355.7909062,End of Saving Image: frame_6278.png
6279,1744588355.7783198,Start of Frame 6279
6279,1744588355.7973533,End of Frame 6279
6280,1744588355.8058546,Start Get Vehicle Position (on manual_control.py Side)
6280,1744588355.8058681,End Get Vehicle Position (on manual_control.py Side)
6280,1744588355.8058555,Start Get Vehicle Position (on record.py Side)
6280,1744588355.805867,End Get Vehicle Position (on record.py Side)
6280,1744588355.7973635,Start of Frame 6280
6280,1744588355.811645,End of Frame 6280
6281,1744588355.821786,Start Get Vehicle Position (on manual_control.py Side)
6281,1744588355.821801,End Get Vehicle Position (on manual_control.py Side)
6281,1744588355.821787,Start Get Vehicle Position (on record.py Side)
6281,1744588355.8217998,End Get Vehicle Position (on record.py Side)
6279,1744588355.805687,Start of Saving Image: frame_6279.png
6279,1744588355.8218906,End of Saving Image: frame_6279.png
6281,1744588355.811659,Start of Frame 6281
6281,1744588355.829921,End of Frame 6281
6281,1744588355.8376195,Start Get Vehicle Position (on manual_control.py Side)
6281,1744588355.8376405,End Get Vehicle Position (on manual_control.py Side)
6281,1744588355.837621,Start Get Vehicle Position (on record.py Side)
6281,1744588355.837639,End Get Vehicle Position (on record.py Side)
6280,1744588355.822201,Start of Saving Image: frame_6280.png
6280,1744588355.8394306,End of Saving Image: frame_6280.png
6281,1744588355.8397386,Start of Saving Image: frame_6281.png
6281,1744588355.8490906,End of Saving Image: frame_6281.png
6281,1744588355.829931,Start of Frame 6281
6281,1744588355.8502102,End of Frame 6281
6282,1744588355.8535311,Start Get Vehicle Position (on manual_control.py Side)
6282,1744588355.8535485,End Get Vehicle Position (on manual_control.py Side)
6282,1744588355.853532,Start Get Vehicle Position (on record.py Side)
6282,1744588355.8535473,End Get Vehicle Position (on record.py Side)
6282,1744588355.850215,Start of Frame 6282
6282,1744588355.8604655,End of Frame 6282
6283,1744588355.8696175,Start Get Vehicle Position (on manual_control.py Side)
6283,1744588355.8696375,End Get Vehicle Position (on manual_control.py Side)
6283,1744588355.869619,Start Get Vehicle Position (on record.py Side)
6283,1744588355.869636,End Get Vehicle Position (on record.py Side)
6282,1744588355.8592193,Start of Saving Image: frame_6282.png
6282,1744588355.8709388,End of Saving Image: frame_6282.png
6283,1744588355.8604732,Start of Frame 6283
6283,1744588355.876066,End of Frame 6283
6284,1744588355.8858373,Start Get Vehicle Position (on manual_control.py Side)
6284,1744588355.88585,End Get Vehicle Position (on manual_control.py Side)
6284,1744588355.885838,Start Get Vehicle Position (on record.py Side)
6284,1744588355.8858488,End Get Vehicle Position (on record.py Side)
6284,1744588355.8760734,Start of Frame 6284
6284,1744588355.8909683,End of Frame 6284
6285,1744588355.9015615,Start Get Vehicle Position (on manual_control.py Side)
6285,1744588355.9015763,End Get Vehicle Position (on manual_control.py Side)
6285,1744588355.9015627,Start Get Vehicle Position (on record.py Side)
6285,1744588355.9015749,End Get Vehicle Position (on record.py Side)
6283,1744588355.8856115,Start of Saving Image: frame_6283.png
6283,1744588355.9026687,End of Saving Image: frame_6283.png
6284,1744588355.902933,Start of Saving Image: frame_6284.png
6284,1744588355.9096215,End of Saving Image: frame_6284.png
6285,1744588355.890975,Start of Frame 6285
6285,1744588355.910063,End of Frame 6285
6285,1744588355.9175215,Start Get Vehicle Position (on manual_control.py Side)
6285,1744588355.9175413,End Get Vehicle Position (on manual_control.py Side)
6285,1744588355.9175227,Start Get Vehicle Position (on record.py Side)
6285,1744588355.9175398,End Get Vehicle Position (on record.py Side)
5954,1744588355.700298,Start of Saving Image: frame_5954.png
5954,1744588355.9197032,End of Saving Image: frame_5954.png
6285,1744588355.9100714,Start of Frame 6285
6285,1744588355.9313378,End of Frame 6285
6286,1744588355.9334688,Start Get Vehicle Position (on manual_control.py Side)
6286,1744588355.9334826,End Get Vehicle Position (on manual_control.py Side)
6286,1744588355.93347,Start Get Vehicle Position (on record.py Side)
6286,1744588355.9334817,End Get Vehicle Position (on record.py Side)
6285,1744588355.9200299,Start of Saving Image: frame_6285.png
6285,1744588355.9346244,End of Saving Image: frame_6285.png
6286,1744588355.9313438,Start of Frame 6286
6286,1744588355.9385903,End of Frame 6286
6287,1744588355.9498918,Start Get Vehicle Position (on manual_control.py Side)
6287,1744588355.949904,End Get Vehicle Position (on manual_control.py Side)
6287,1744588355.9498925,Start Get Vehicle Position (on record.py Side)
6287,1744588355.9499025,End Get Vehicle Position (on record.py Side)
6287,1744588355.9385967,Start of Frame 6287
6287,1744588355.9547453,End of Frame 6287
6287,1744588355.9644992,Start Get Vehicle Position (on manual_control.py Side)
6287,1744588355.9645135,End Get Vehicle Position (on manual_control.py Side)
6287,1744588355.9645002,Start Get Vehicle Position (on record.py Side)
6287,1744588355.9645128,End Get Vehicle Position (on record.py Side)
6286,1744588355.949737,Start of Saving Image: frame_6286.png
6286,1744588355.9656613,End of Saving Image: frame_6286.png
6287,1744588355.965944,Start of Saving Image: frame_6287.png
6287,1744588355.9722733,End of Saving Image: frame_6287.png
6287,1744588355.954751,Start of Frame 6287
6287,1744588355.975078,End of Frame 6287
6288,1744588355.9804432,Start Get Vehicle Position (on manual_control.py Side)
6288,1744588355.9804564,End Get Vehicle Position (on manual_control.py Side)
6288,1744588355.9804442,Start Get Vehicle Position (on record.py Side)
6288,1744588355.9804556,End Get Vehicle Position (on record.py Side)
6288,1744588355.975083,Start of Frame 6288
6288,1744588355.9866774,End of Frame 6288
6289,1744588355.9967947,Start Get Vehicle Position (on manual_control.py Side)
6289,1744588355.996807,End Get Vehicle Position (on manual_control.py Side)
6289,1744588355.9967957,Start Get Vehicle Position (on record.py Side)
6289,1744588355.9968061,End Get Vehicle Position (on record.py Side)
6289,1744588355.986689,Start of Frame 6289
6289,1744588356.0025482,End of Frame 6289
6290,1744588356.0125978,Start Get Vehicle Position (on manual_control.py Side)
6290,1744588356.0126119,End Get Vehicle Position (on manual_control.py Side)
6290,1744588356.0125985,Start Get Vehicle Position (on record.py Side)
6290,1744588356.0126107,End Get Vehicle Position (on record.py Side)
6288,1744588355.9966846,Start of Saving Image: frame_6288.png
6288,1744588356.0138304,End of Saving Image: frame_6288.png
6290,1744588356.0025566,Start of Frame 6290
6290,1744588356.0204618,End of Frame 6290
6291,1744588356.0285296,Start Get Vehicle Position (on manual_control.py Side)
6291,1744588356.0285473,End Get Vehicle Position (on manual_control.py Side)
6291,1744588356.0285313,Start Get Vehicle Position (on record.py Side)
6291,1744588356.0285459,End Get Vehicle Position (on record.py Side)
6289,1744588356.0141468,Start of Saving Image: frame_6289.png
6289,1744588356.029686,End of Saving Image: frame_6289.png
6291,1744588356.0204718,Start of Frame 6291
6291,1744588356.036303,End of Frame 6291
6292,1744588356.0445292,Start Get Vehicle Position (on manual_control.py Side)
6292,1744588356.044545,End Get Vehicle Position (on manual_control.py Side)
6292,1744588356.0445304,Start Get Vehicle Position (on record.py Side)
6292,1744588356.0445437,End Get Vehicle Position (on record.py Side)
6290,1744588356.0299542,Start of Saving Image: frame_6290.png
6290,1744588356.045693,End of Saving Image: frame_6290.png
6291,1744588356.046043,Start of Saving Image: frame_6291.png
6291,1744588356.0529935,End of Saving Image: frame_6291.png
6292,1744588356.0363114,Start of Frame 6292
6292,1744588356.0551946,End of Frame 6292
6292,1744588356.0604594,Start Get Vehicle Position (on manual_control.py Side)
6292,1744588356.0604737,End Get Vehicle Position (on manual_control.py Side)
6292,1744588356.06046,Start Get Vehicle Position (on record.py Side)
6292,1744588356.0604725,End Get Vehicle Position (on record.py Side)
6292,1744588356.055199,Start of Frame 6292
6292,1744588356.0657945,End of Frame 6292
6293,1744588356.076507,Start Get Vehicle Position (on manual_control.py Side)
6293,1744588356.0765235,End Get Vehicle Position (on manual_control.py Side)
6293,1744588356.0765088,Start Get Vehicle Position (on record.py Side)
6293,1744588356.0765224,End Get Vehicle Position (on record.py Side)
6292,1744588356.0629957,Start of Saving Image: frame_6292.png
6292,1744588356.0776563,End of Saving Image: frame_6292.png
6293,1744588356.0658052,Start of Frame 6293
6293,1744588356.0823042,End of Frame 6293
6294,1744588356.0928848,Start Get Vehicle Position (on manual_control.py Side)
6294,1744588356.0929,End Get Vehicle Position (on manual_control.py Side)
6294,1744588356.092886,Start Get Vehicle Position (on record.py Side)
6294,1744588356.0928986,End Get Vehicle Position (on record.py Side)
6294,1744588356.0823145,Start of Frame 6294
6294,1744588356.0981011,End of Frame 6294
6295,1744588356.1085799,Start Get Vehicle Position (on manual_control.py Side)
6295,1744588356.1085947,End Get Vehicle Position (on manual_control.py Side)
6295,1744588356.1085808,Start Get Vehicle Position (on record.py Side)
6295,1744588356.1085937,End Get Vehicle Position (on record.py Side)
6293,1744588356.0926766,Start of Saving Image: frame_6293.png
6293,1744588356.1099122,End of Saving Image: frame_6293.png
6295,1744588356.0981085,Start of Frame 6295
6295,1744588356.116103,End of Frame 6295
6295,1744588356.1244977,Start Get Vehicle Position (on manual_control.py Side)
6295,1744588356.1245124,End Get Vehicle Position (on manual_control.py Side)
6295,1744588356.1244986,Start Get Vehicle Position (on record.py Side)
6295,1744588356.124511,End Get Vehicle Position (on record.py Side)
6294,1744588356.110174,Start of Saving Image: frame_6294.png
6294,1744588356.1256835,End of Saving Image: frame_6294.png
5955,1744588355.9247339,Start of Saving Image: frame_5955.png
5955,1744588356.1259348,End of Saving Image: frame_5955.png
6295,1744588356.1161149,Start of Frame 6295
6295,1744588356.1362097,End of Frame 6295
6296,1744588356.1404529,Start Get Vehicle Position (on manual_control.py Side)
6296,1744588356.1404667,End Get Vehicle Position (on manual_control.py Side)
6296,1744588356.1404538,Start Get Vehicle Position (on record.py Side)
6296,1744588356.140466,End Get Vehicle Position (on record.py Side)
6295,1744588356.133155,Start of Saving Image: frame_6295.png
6295,1744588356.1434352,End of Saving Image: frame_6295.png
6296,1744588356.1362166,Start of Frame 6296
6296,1744588356.146828,End of Frame 6296
6297,1744588356.1568182,Start Get Vehicle Position (on manual_control.py Side)
6297,1744588356.1568303,End Get Vehicle Position (on manual_control.py Side)
6297,1744588356.1568189,Start Get Vehicle Position (on record.py Side)
6297,1744588356.1568294,End Get Vehicle Position (on record.py Side)
6297,1744588356.146835,Start of Frame 6297
6297,1744588356.1618876,End of Frame 6297
6298,1744588356.1726289,Start Get Vehicle Position (on manual_control.py Side)
6298,1744588356.1726508,End Get Vehicle Position (on manual_control.py Side)
6298,1744588356.1726305,Start Get Vehicle Position (on record.py Side)
6298,1744588356.1726491,End Get Vehicle Position (on record.py Side)
6296,1744588356.156699,Start of Saving Image: frame_6296.png
6296,1744588356.174784,End of Saving Image: frame_6296.png
6298,1744588356.1618958,Start of Frame 6298
6298,1744588356.1799638,End of Frame 6298
6298,1744588356.1885426,Start Get Vehicle Position (on manual_control.py Side)
6298,1744588356.1885562,End Get Vehicle Position (on manual_control.py Side)
6298,1744588356.1885438,Start Get Vehicle Position (on record.py Side)
6298,1744588356.1885552,End Get Vehicle Position (on record.py Side)
6297,1744588356.1750505,Start of Saving Image: frame_6297.png
6297,1744588356.1896975,End of Saving Image: frame_6297.png
6298,1744588356.1799722,Start of Frame 6298
6298,1744588356.1998987,End of Frame 6298
6299,1744588356.2044475,Start Get Vehicle Position (on manual_control.py Side)
6299,1744588356.2044632,End Get Vehicle Position (on manual_control.py Side)
6299,1744588356.2044485,Start Get Vehicle Position (on record.py Side)
6299,1744588356.2044623,End Get Vehicle Position (on record.py Side)
6298,1744588356.1911907,Start of Saving Image: frame_6298.png
6298,1744588356.2057877,End of Saving Image: frame_6298.png
6299,1744588356.199906,Start of Frame 6299
6299,1744588356.2100153,End of Frame 6299
6300,1744588356.2208738,Start Get Vehicle Position (on manual_control.py Side)
6300,1744588356.2208865,End Get Vehicle Position (on manual_control.py Side)
6300,1744588356.2208745,Start Get Vehicle Position (on record.py Side)
6300,1744588356.2208858,End Get Vehicle Position (on record.py Side)
6300,1744588356.2100234,Start of Frame 6300
6300,1744588356.227352,End of Frame 6300
6301,1744588356.2364938,Start Get Vehicle Position (on manual_control.py Side)
6301,1744588356.2365077,End Get Vehicle Position (on manual_control.py Side)
6301,1744588356.2364948,Start Get Vehicle Position (on record.py Side)
6301,1744588356.236507,End Get Vehicle Position (on record.py Side)
6299,1744588356.220776,Start of Saving Image: frame_6299.png
6299,1744588356.2377098,End of Saving Image: frame_6299.png
6301,1744588356.2273588,Start of Frame 6301
6301,1744588356.2440424,End of Frame 6301
6301,1744588356.2525127,Start Get Vehicle Position (on manual_control.py Side)
6301,1744588356.2525282,End Get Vehicle Position (on manual_control.py Side)
6301,1744588356.252514,Start Get Vehicle Position (on record.py Side)
6301,1744588356.2525265,End Get Vehicle Position (on record.py Side)
6300,1744588356.237948,Start of Saving Image: frame_6300.png
6300,1744588356.2537327,End of Saving Image: frame_6300.png
6301,1744588356.2569554,Start of Saving Image: frame_6301.png
6301,1744588356.2633615,End of Saving Image: frame_6301.png
6301,1744588356.2440538,Start of Frame 6301
6301,1744588356.2648427,End of Frame 6301
6302,1744588356.2684455,Start Get Vehicle Position (on manual_control.py Side)
6302,1744588356.268459,End Get Vehicle Position (on manual_control.py Side)
6302,1744588356.2684464,Start Get Vehicle Position (on record.py Side)
6302,1744588356.268458,End Get Vehicle Position (on record.py Side)
6302,1744588356.2648501,Start of Frame 6302
6302,1744588356.2739275,End of Frame 6302
6303,1744588356.2848225,Start Get Vehicle Position (on manual_control.py Side)
6303,1744588356.2848358,End Get Vehicle Position (on manual_control.py Side)
6303,1744588356.2848232,Start Get Vehicle Position (on record.py Side)
6303,1744588356.2848349,End Get Vehicle Position (on record.py Side)
6303,1744588356.2739353,Start of Frame 6303
6303,1744588356.290244,End of Frame 6303
6304,1744588356.300527,Start Get Vehicle Position (on manual_control.py Side)
6304,1744588356.3005478,End Get Vehicle Position (on manual_control.py Side)
6304,1744588356.300529,Start Get Vehicle Position (on record.py Side)
6304,1744588356.3005466,End Get Vehicle Position (on record.py Side)
6302,1744588356.28469,Start of Saving Image: frame_6302.png
6302,1744588356.3023753,End of Saving Image: frame_6302.png
6304,1744588356.290255,Start of Frame 6304
6304,1744588356.308696,End of Frame 6304
6305,1744588356.3164904,Start Get Vehicle Position (on manual_control.py Side)
6305,1744588356.3165045,End Get Vehicle Position (on manual_control.py Side)
6305,1744588356.3164918,Start Get Vehicle Position (on record.py Side)
6305,1744588356.3165035,End Get Vehicle Position (on record.py Side)
6303,1744588356.3026218,Start of Saving Image: frame_6303.png
6303,1744588356.3176384,End of Saving Image: frame_6303.png
6304,1744588356.3178766,Start of Saving Image: frame_6304.png
6304,1744588356.32452,End of Saving Image: frame_6304.png
6305,1744588356.3087063,Start of Frame 6305
6305,1744588356.3266852,End of Frame 6305
6305,1744588356.3324537,Start Get Vehicle Position (on manual_control.py Side)
6305,1744588356.3324685,End Get Vehicle Position (on manual_control.py Side)
6305,1744588356.3324552,Start Get Vehicle Position (on record.py Side)
6305,1744588356.3324676,End Get Vehicle Position (on record.py Side)
5956,1744588356.1339948,Start of Saving Image: frame_5956.png
5956,1744588356.3380487,End of Saving Image: frame_5956.png
6305,1744588356.32669,Start of Frame 6305
6305,1744588356.3427367,End of Frame 6305
6305,1744588356.3361802,Start of Saving Image: frame_6305.png
6305,1744588356.3488874,End of Saving Image: frame_6305.png
6306,1744588356.357259,Start of Saving Image: frame_6306.png
6306,1744588356.366071,End of Saving Image: frame_6306.png
6307,1744588356.3742132,Start of Saving Image: frame_6307.png
6307,1744588356.3822885,End of Saving Image: frame_6307.png
6307,1744588356.392874,Start of Saving Image: frame_6307.png
6307,1744588356.399079,End of Saving Image: frame_6307.png
